Address 0x0000: 0x0015
Address 0x0001: 0x0015
Address 0x0002: 0x0013
Address 0x0003: 0x0057
Address 0x0004: 0x0013
Address 0x0005: 0x0065
Address 0x0006: 0x0013
Address 0x0007: 0x006c
Address 0x0008: 0x0013
Address 0x0009: 0x0063
Address 0x000a: 0x0013
Address 0x000b: 0x006f
Address 0x000c: 0x0013
Address 0x000d: 0x006d
Address 0x000e: 0x0013
Address 0x000f: 0x0065
Address 0x0010: 0x0013
Address 0x0011: 0x0020
Address 0x0012: 0x0013
Address 0x0013: 0x0074
Address 0x0014: 0x0013
Address 0x0015: 0x006f
Address 0x0016: 0x0013
Address 0x0017: 0x0020
Address 0x0018: 0x0013
Address 0x0019: 0x0074
Address 0x001a: 0x0013
Address 0x001b: 0x0068
Address 0x001c: 0x0013
Address 0x001d: 0x0065
Address 0x001e: 0x0013
Address 0x001f: 0x0020
Address 0x0020: 0x0013
Address 0x0021: 0x0053
Address 0x0022: 0x0013
Address 0x0023: 0x0079
Address 0x0024: 0x0013
Address 0x0025: 0x006e
Address 0x0026: 0x0013
Address 0x0027: 0x0061
Address 0x0028: 0x0013
Address 0x0029: 0x0063
Address 0x002a: 0x0013
Address 0x002b: 0x006f
Address 0x002c: 0x0013
Address 0x002d: 0x0072
Address 0x002e: 0x0013
Address 0x002f: 0x0020
Address 0x0030: 0x0013
Address 0x0031: 0x0043
Address 0x0032: 0x0013
Address 0x0033: 0x0068
Address 0x0034: 0x0013
Address 0x0035: 0x0061
Address 0x0036: 0x0013
Address 0x0037: 0x006c
Address 0x0038: 0x0013
Address 0x0039: 0x006c
Address 0x003a: 0x0013
Address 0x003b: 0x0065
Address 0x003c: 0x0013
Address 0x003d: 0x006e
Address 0x003e: 0x0013
Address 0x003f: 0x0067
Address 0x0040: 0x0013
Address 0x0041: 0x0065
Address 0x0042: 0x0013
Address 0x0043: 0x0021
Address 0x0044: 0x0013
Address 0x0045: 0x000a
Address 0x0046: 0x0013
Address 0x0047: 0x0050
Address 0x0048: 0x0013
Address 0x0049: 0x006c
Address 0x004a: 0x0013
Address 0x004b: 0x0065
Address 0x004c: 0x0013
Address 0x004d: 0x0061
Address 0x004e: 0x0013
Address 0x004f: 0x0073
Address 0x0050: 0x0013
Address 0x0051: 0x0065
Address 0x0052: 0x0013
Address 0x0053: 0x0020
Address 0x0054: 0x0013
Address 0x0055: 0x0072
Address 0x0056: 0x0013
Address 0x0057: 0x0065
Address 0x0058: 0x0013
Address 0x0059: 0x0063
Address 0x005a: 0x0013
Address 0x005b: 0x006f
Address 0x005c: 0x0013
Address 0x005d: 0x0072
Address 0x005e: 0x0013
Address 0x005f: 0x0064
Address 0x0060: 0x0013
Address 0x0061: 0x0020
Address 0x0062: 0x0013
Address 0x0063: 0x0079
Address 0x0064: 0x0013
Address 0x0065: 0x006f
Address 0x0066: 0x0013
Address 0x0067: 0x0075
Address 0x0068: 0x0013
Address 0x0069: 0x0072
Address 0x006a: 0x0013
Address 0x006b: 0x0020
Address 0x006c: 0x0013
Address 0x006d: 0x0070
Address 0x006e: 0x0013
Address 0x006f: 0x0072
Address 0x0070: 0x0013
Address 0x0071: 0x006f
Address 0x0072: 0x0013
Address 0x0073: 0x0067
Address 0x0074: 0x0013
Address 0x0075: 0x0072
Address 0x0076: 0x0013
Address 0x0077: 0x0065
Address 0x0078: 0x0013
Address 0x0079: 0x0073
Address 0x007a: 0x0013
Address 0x007b: 0x0073
Address 0x007c: 0x0013
Address 0x007d: 0x0020
Address 0x007e: 0x0013
Address 0x007f: 0x0062
Address 0x0080: 0x0013
Address 0x0081: 0x0079
Address 0x0082: 0x0013
Address 0x0083: 0x0020
Address 0x0084: 0x0013
Address 0x0085: 0x0070
Address 0x0086: 0x0013
Address 0x0087: 0x0075
Address 0x0088: 0x0013
Address 0x0089: 0x0074
Address 0x008a: 0x0013
Address 0x008b: 0x0074
Address 0x008c: 0x0013
Address 0x008d: 0x0069
Address 0x008e: 0x0013
Address 0x008f: 0x006e
Address 0x0090: 0x0013
Address 0x0091: 0x0067
Address 0x0092: 0x0013
Address 0x0093: 0x0020
Address 0x0094: 0x0013
Address 0x0095: 0x0063
Address 0x0096: 0x0013
Address 0x0097: 0x006f
Address 0x0098: 0x0013
Address 0x0099: 0x0064
Address 0x009a: 0x0013
Address 0x009b: 0x0065
Address 0x009c: 0x0013
Address 0x009d: 0x0073
Address 0x009e: 0x0013
Address 0x009f: 0x0020
Address 0x00a0: 0x0013
Address 0x00a1: 0x006c
Address 0x00a2: 0x0013
Address 0x00a3: 0x0069
Address 0x00a4: 0x0013
Address 0x00a5: 0x006b
Address 0x00a6: 0x0013
Address 0x00a7: 0x0065
Address 0x00a8: 0x0013
Address 0x00a9: 0x000a
Address 0x00aa: 0x0013
Address 0x00ab: 0x0074
Address 0x00ac: 0x0013
Address 0x00ad: 0x0068
Address 0x00ae: 0x0013
Address 0x00af: 0x0069
Address 0x00b0: 0x0013
Address 0x00b1: 0x0073
Address 0x00b2: 0x0013
Address 0x00b3: 0x0020
Address 0x00b4: 0x0013
Address 0x00b5: 0x006f
Address 0x00b6: 0x0013
Address 0x00b7: 0x006e
Address 0x00b8: 0x0013
Address 0x00b9: 0x0065
Address 0x00ba: 0x0013
Address 0x00bb: 0x0020
Address 0x00bc: 0x0013
Address 0x00bd: 0x0069
Address 0x00be: 0x0013
Address 0x00bf: 0x006e
Address 0x00c0: 0x0013
Address 0x00c1: 0x0074
Address 0x00c2: 0x0013
Address 0x00c3: 0x006f
Address 0x00c4: 0x0013
Address 0x00c5: 0x0020
Address 0x00c6: 0x0013
Address 0x00c7: 0x0074
Address 0x00c8: 0x0013
Address 0x00c9: 0x0068
Address 0x00ca: 0x0013
Address 0x00cb: 0x0065
Address 0x00cc: 0x0013
Address 0x00cd: 0x0020
Address 0x00ce: 0x0013
Address 0x00cf: 0x0063
Address 0x00d0: 0x0013
Address 0x00d1: 0x0068
Address 0x00d2: 0x0013
Address 0x00d3: 0x0061
Address 0x00d4: 0x0013
Address 0x00d5: 0x006c
Address 0x00d6: 0x0013
Address 0x00d7: 0x006c
Address 0x00d8: 0x0013
Address 0x00d9: 0x0065
Address 0x00da: 0x0013
Address 0x00db: 0x006e
Address 0x00dc: 0x0013
Address 0x00dd: 0x0067
Address 0x00de: 0x0013
Address 0x00df: 0x0065
Address 0x00e0: 0x0013
Address 0x00e1: 0x0020
Address 0x00e2: 0x0013
Address 0x00e3: 0x0077
Address 0x00e4: 0x0013
Address 0x00e5: 0x0065
Address 0x00e6: 0x0013
Address 0x00e7: 0x0062
Address 0x00e8: 0x0013
Address 0x00e9: 0x0073
Address 0x00ea: 0x0013
Address 0x00eb: 0x0069
Address 0x00ec: 0x0013
Address 0x00ed: 0x0074
Address 0x00ee: 0x0013
Address 0x00ef: 0x0065
Address 0x00f0: 0x0013
Address 0x00f1: 0x003a
Address 0x00f2: 0x0013
Address 0x00f3: 0x0020
Address 0x00f4: 0x0013
Address 0x00f5: 0x0076
Address 0x00f6: 0x0013
Address 0x00f7: 0x0072
Address 0x00f8: 0x0013
Address 0x00f9: 0x0062
Address 0x00fa: 0x0013
Address 0x00fb: 0x0077
Address 0x00fc: 0x0013
Address 0x00fd: 0x004d
Address 0x00fe: 0x0013
Address 0x00ff: 0x0059
Address 0x0100: 0x0013
Address 0x0101: 0x0078
Address 0x0102: 0x0013
Address 0x0103: 0x0070
Address 0x0104: 0x0013
Address 0x0105: 0x0064
Address 0x0106: 0x0013
Address 0x0107: 0x0053
Address 0x0108: 0x0013
Address 0x0109: 0x0057
Address 0x010a: 0x0013
Address 0x010b: 0x0075
Address 0x010c: 0x0013
Address 0x010d: 0x000a
Address 0x010e: 0x0013
Address 0x010f: 0x000a
Address 0x0110: 0x0013
Address 0x0111: 0x0045
Address 0x0112: 0x0013
Address 0x0113: 0x0078
Address 0x0114: 0x0013
Address 0x0115: 0x0065
Address 0x0116: 0x0013
Address 0x0117: 0x0063
Address 0x0118: 0x0013
Address 0x0119: 0x0075
Address 0x011a: 0x0013
Address 0x011b: 0x0074
Address 0x011c: 0x0013
Address 0x011d: 0x0069
Address 0x011e: 0x0013
Address 0x011f: 0x006e
Address 0x0120: 0x0013
Address 0x0121: 0x0067
Address 0x0122: 0x0013
Address 0x0123: 0x0020
Address 0x0124: 0x0013
Address 0x0125: 0x0073
Address 0x0126: 0x0013
Address 0x0127: 0x0065
Address 0x0128: 0x0013
Address 0x0129: 0x006c
Address 0x012a: 0x0013
Address 0x012b: 0x0066
Address 0x012c: 0x0013
Address 0x012d: 0x002d
Address 0x012e: 0x0013
Address 0x012f: 0x0074
Address 0x0130: 0x0013
Address 0x0131: 0x0065
Address 0x0132: 0x0013
Address 0x0133: 0x0073
Address 0x0134: 0x0013
Address 0x0135: 0x0074
Address 0x0136: 0x0013
Address 0x0137: 0x002e
Address 0x0138: 0x0013
Address 0x0139: 0x002e
Address 0x013a: 0x0013
Address 0x013b: 0x002e
Address 0x013c: 0x0013
Address 0x013d: 0x000a
Address 0x013e: 0x0013
Address 0x013f: 0x000a
Address 0x0140: 0x0006
Address 0x0141: 0x015b
Address 0x0142: 0x0013
Address 0x0143: 0x006a
Address 0x0144: 0x0013
Address 0x0145: 0x006d
Address 0x0146: 0x0013
Address 0x0147: 0x0070
Address 0x0148: 0x0013
Address 0x0149: 0x0020
Address 0x014a: 0x0013
Address 0x014b: 0x0066
Address 0x014c: 0x0013
Address 0x014d: 0x0061
Address 0x014e: 0x0013
Address 0x014f: 0x0069
Address 0x0150: 0x0013
Address 0x0151: 0x006c
Address 0x0152: 0x0013
Address 0x0153: 0x0073
Address 0x0154: 0x0013
Address 0x0155: 0x000a
Address 0x0156: 0x0000
Address 0x0157: 0x0015
Address 0x0158: 0x0015
Address 0x0159: 0x0015
Address 0x015a: 0x0015
Address 0x015b: 0x0015
Address 0x015c: 0x0015
Address 0x015d: 0x0015
Address 0x015e: 0x0015
Address 0x015f: 0x0015
Address 0x0160: 0x0006
Address 0x0161: 0x0166
Address 0x0162: 0x0006
Address 0x0163: 0x0170
Address 0x0164: 0x0006
Address 0x0165: 0x018d
Address 0x0166: 0x0006
Address 0x0167: 0x01e4
Address 0x0168: 0x0006
Address 0x0169: 0x01a8
Address 0x016a: 0x0006
Address 0x016b: 0x01c5
Address 0x016c: 0x0015
Address 0x016d: 0x0015
Address 0x016e: 0x0015
Address 0x016f: 0x0015
Address 0x0170: 0x0013
Address 0x0171: 0x006a
Address 0x0172: 0x0013
Address 0x0173: 0x006d
Address 0x0174: 0x0013
Address 0x0175: 0x0070
Address 0x0176: 0x0013
Address 0x0177: 0x0020
Address 0x0178: 0x0013
Address 0x0179: 0x006c
Address 0x017a: 0x0013
Address 0x017b: 0x0061
Address 0x017c: 0x0013
Address 0x017d: 0x006e
Address 0x017e: 0x0013
Address 0x017f: 0x0064
Address 0x0180: 0x0013
Address 0x0181: 0x0073
Address 0x0182: 0x0013
Address 0x0183: 0x0020
Address 0x0184: 0x0013
Address 0x0185: 0x002d
Address 0x0186: 0x0013
Address 0x0187: 0x0032
Address 0x0188: 0x0013
Address 0x0189: 0x000a
Address 0x018a: 0x0000
Address 0x018b: 0x0015
Address 0x018c: 0x0015
Address 0x018d: 0x0013
Address 0x018e: 0x006a
Address 0x018f: 0x0013
Address 0x0190: 0x006d
Address 0x0191: 0x0013
Address 0x0192: 0x0070
Address 0x0193: 0x0013
Address 0x0194: 0x0020
Address 0x0195: 0x0013
Address 0x0196: 0x006c
Address 0x0197: 0x0013
Address 0x0198: 0x0061
Address 0x0199: 0x0013
Address 0x019a: 0x006e
Address 0x019b: 0x0013
Address 0x019c: 0x0064
Address 0x019d: 0x0013
Address 0x019e: 0x0073
Address 0x019f: 0x0013
Address 0x01a0: 0x0020
Address 0x01a1: 0x0013
Address 0x01a2: 0x002d
Address 0x01a3: 0x0013
Address 0x01a4: 0x0031
Address 0x01a5: 0x0013
Address 0x01a6: 0x000a
Address 0x01a7: 0x0000
Address 0x01a8: 0x0015
Address 0x01a9: 0x0015
Address 0x01aa: 0x0013
Address 0x01ab: 0x006a
Address 0x01ac: 0x0013
Address 0x01ad: 0x006d
Address 0x01ae: 0x0013
Address 0x01af: 0x0070
Address 0x01b0: 0x0013
Address 0x01b1: 0x0020
Address 0x01b2: 0x0013
Address 0x01b3: 0x006c
Address 0x01b4: 0x0013
Address 0x01b5: 0x0061
Address 0x01b6: 0x0013
Address 0x01b7: 0x006e
Address 0x01b8: 0x0013
Address 0x01b9: 0x0064
Address 0x01ba: 0x0013
Address 0x01bb: 0x0073
Address 0x01bc: 0x0013
Address 0x01bd: 0x0020
Address 0x01be: 0x0013
Address 0x01bf: 0x002b
Address 0x01c0: 0x0013
Address 0x01c1: 0x0031
Address 0x01c2: 0x0013
Address 0x01c3: 0x000a
Address 0x01c4: 0x0000
Address 0x01c5: 0x0015
Address 0x01c6: 0x0015
Address 0x01c7: 0x0015
Address 0x01c8: 0x0015
Address 0x01c9: 0x0013
Address 0x01ca: 0x006a
Address 0x01cb: 0x0013
Address 0x01cc: 0x006d
Address 0x01cd: 0x0013
Address 0x01ce: 0x0070
Address 0x01cf: 0x0013
Address 0x01d0: 0x0020
Address 0x01d1: 0x0013
Address 0x01d2: 0x006c
Address 0x01d3: 0x0013
Address 0x01d4: 0x0061
Address 0x01d5: 0x0013
Address 0x01d6: 0x006e
Address 0x01d7: 0x0013
Address 0x01d8: 0x0064
Address 0x01d9: 0x0013
Address 0x01da: 0x0073
Address 0x01db: 0x0013
Address 0x01dc: 0x0020
Address 0x01dd: 0x0013
Address 0x01de: 0x002b
Address 0x01df: 0x0013
Address 0x01e0: 0x0032
Address 0x01e1: 0x0013
Address 0x01e2: 0x000a
Address 0x01e3: 0x0000
Address 0x01e4: 0x0007
Address 0x01e5: 0x0000
Address 0x01e6: 0x0432
Address 0x01e7: 0x0008
Address 0x01e8: 0x0001
Address 0x01e9: 0x0432
Address 0x01ea: 0x0007
Address 0x01eb: 0x0001
Address 0x01ec: 0x01ef
Address 0x01ed: 0x0006
Address 0x01ee: 0x0432
Address 0x01ef: 0x0008
Address 0x01f0: 0x0000
Address 0x01f1: 0x01f4
Address 0x01f2: 0x0006
Address 0x01f3: 0x0432
Address 0x01f4: 0x0007
Address 0x01f5: 0x8000
Address 0x01f6: 0x0445
Address 0x01f7: 0x0007
Address 0x01f8: 0x8001
Address 0x01f9: 0x0445
Address 0x01fa: 0x0007
Address 0x01fb: 0x8002
Address 0x01fc: 0x0445
Address 0x01fd: 0x0007
Address 0x01fe: 0x8003
Address 0x01ff: 0x0445
Address 0x0200: 0x0007
Address 0x0201: 0x8004
Address 0x0202: 0x0445
Address 0x0203: 0x0007
Address 0x0204: 0x8005
Address 0x0205: 0x0445
Address 0x0206: 0x0007
Address 0x0207: 0x8006
Address 0x0208: 0x0445
Address 0x0209: 0x0007
Address 0x020a: 0x8007
Address 0x020b: 0x0445
Address 0x020c: 0x0001
Address 0x020d: 0x8000
Address 0x020e: 0x0001
Address 0x020f: 0x0008
Address 0x0210: 0x8000
Address 0x0211: 0x045e
Address 0x0212: 0x0001
Address 0x0213: 0x8000
Address 0x0214: 0x0000
Address 0x0215: 0x0007
Address 0x0216: 0x8000
Address 0x0217: 0x045e
Address 0x0218: 0x0009
Address 0x0219: 0x8000
Address 0x021a: 0x0001
Address 0x021b: 0x0001
Address 0x021c: 0x0007
Address 0x021d: 0x8000
Address 0x021e: 0x0234
Address 0x021f: 0x0013
Address 0x0220: 0x006e
Address 0x0221: 0x0013
Address 0x0222: 0x006f
Address 0x0223: 0x0013
Address 0x0224: 0x0020
Address 0x0225: 0x0013
Address 0x0226: 0x0061
Address 0x0227: 0x0013
Address 0x0228: 0x0064
Address 0x0229: 0x0013
Address 0x022a: 0x0064
Address 0x022b: 0x0013
Address 0x022c: 0x0020
Address 0x022d: 0x0013
Address 0x022e: 0x006f
Address 0x022f: 0x0013
Address 0x0230: 0x0070
Address 0x0231: 0x0013
Address 0x0232: 0x000a
Address 0x0233: 0x0000
Address 0x0234: 0x0004
Address 0x0235: 0x8001
Address 0x0236: 0x8000
Address 0x0237: 0x0002
Address 0x0238: 0x0007
Address 0x0239: 0x8001
Address 0x023a: 0x024e
Address 0x023b: 0x0013
Address 0x023c: 0x006e
Address 0x023d: 0x0013
Address 0x023e: 0x006f
Address 0x023f: 0x0013
Address 0x0240: 0x0020
Address 0x0241: 0x0013
Address 0x0242: 0x0065
Address 0x0243: 0x0013
Address 0x0244: 0x0071
Address 0x0245: 0x0013
Address 0x0246: 0x0020
Address 0x0247: 0x0013
Address 0x0248: 0x006f
Address 0x0249: 0x0013
Address 0x024a: 0x0070
Address 0x024b: 0x0013
Address 0x024c: 0x000a
Address 0x024d: 0x0000
Address 0x024e: 0x0002
Address 0x024f: 0x8000
Address 0x0250: 0x0002
Address 0x0251: 0x8001
Address 0x0252: 0x0003
Address 0x0253: 0x8000
Address 0x0254: 0x0003
Address 0x0255: 0x8001
Address 0x0256: 0x0004
Address 0x0257: 0x8002
Address 0x0258: 0x8001
Address 0x0259: 0x0002
Address 0x025a: 0x0008
Address 0x025b: 0x8002
Address 0x025c: 0x0486
Address 0x025d: 0x0004
Address 0x025e: 0x8002
Address 0x025f: 0x8000
Address 0x0260: 0x0001
Address 0x0261: 0x0008
Address 0x0262: 0x8002
Address 0x0263: 0x0486
Address 0x0264: 0x0005
Address 0x0265: 0x8002
Address 0x0266: 0x8001
Address 0x0267: 0x8000
Address 0x0268: 0x0008
Address 0x0269: 0x8002
Address 0x026a: 0x0473
Address 0x026b: 0x0005
Address 0x026c: 0x8002
Address 0x026d: 0x8000
Address 0x026e: 0x8001
Address 0x026f: 0x0007
Address 0x0270: 0x8002
Address 0x0271: 0x0473
Address 0x0272: 0x0005
Address 0x0273: 0x8002
Address 0x0274: 0x002a
Address 0x0275: 0x002a
Address 0x0276: 0x0007
Address 0x0277: 0x8002
Address 0x0278: 0x0473
Address 0x0279: 0x000c
Address 0x027a: 0x8000
Address 0x027b: 0x70f0
Address 0x027c: 0x4caa
Address 0x027d: 0x0004
Address 0x027e: 0x8001
Address 0x027f: 0x8000
Address 0x0280: 0x40a0
Address 0x0281: 0x0008
Address 0x0282: 0x8001
Address 0x0283: 0x0499
Address 0x0284: 0x000d
Address 0x0285: 0x8001
Address 0x0286: 0x70f0
Address 0x0287: 0x4caa
Address 0x0288: 0x0004
Address 0x0289: 0x8000
Address 0x028a: 0x8001
Address 0x028b: 0x7cfa
Address 0x028c: 0x0007
Address 0x028d: 0x8000
Address 0x028e: 0x02ac
Address 0x028f: 0x0013
Address 0x0290: 0x006e
Address 0x0291: 0x0013
Address 0x0292: 0x006f
Address 0x0293: 0x0013
Address 0x0294: 0x0020
Address 0x0295: 0x0013
Address 0x0296: 0x0062
Address 0x0297: 0x0013
Address 0x0298: 0x0069
Address 0x0299: 0x0013
Address 0x029a: 0x0074
Address 0x029b: 0x0013
Address 0x029c: 0x0077
Address 0x029d: 0x0013
Address 0x029e: 0x0069
Address 0x029f: 0x0013
Address 0x02a0: 0x0073
Address 0x02a1: 0x0013
Address 0x02a2: 0x0065
Address 0x02a3: 0x0013
Address 0x02a4: 0x0020
Address 0x02a5: 0x0013
Address 0x02a6: 0x006f
Address 0x02a7: 0x0013
Address 0x02a8: 0x0072
Address 0x02a9: 0x0013
Address 0x02aa: 0x000a
Address 0x02ab: 0x0000
Address 0x02ac: 0x000e
Address 0x02ad: 0x8000
Address 0x02ae: 0x0000
Address 0x02af: 0x0004
Address 0x02b0: 0x8001
Address 0x02b1: 0x8000
Address 0x02b2: 0x7fff
Address 0x02b3: 0x0008
Address 0x02b4: 0x8001
Address 0x02b5: 0x04b8
Address 0x02b6: 0x000e
Address 0x02b7: 0x8000
Address 0x02b8: 0x5555
Address 0x02b9: 0x0004
Address 0x02ba: 0x8001
Address 0x02bb: 0x8000
Address 0x02bc: 0x2aaa
Address 0x02bd: 0x0008
Address 0x02be: 0x8001
Address 0x02bf: 0x04b8
Address 0x02c0: 0x0011
Address 0x02c1: 0x0505
Address 0x02c2: 0x0006
Address 0x02c3: 0x0509
Address 0x02c4: 0x0003
Address 0x02c5: 0x8000
Address 0x02c6: 0x0004
Address 0x02c7: 0x8001
Address 0x02c8: 0x8000
Address 0x02c9: 0x02c4
Address 0x02ca: 0x0007
Address 0x02cb: 0x8001
Address 0x02cc: 0x0509
Address 0x02cd: 0x0004
Address 0x02ce: 0x8001
Address 0x02cf: 0x8000
Address 0x02d0: 0x02c2
Address 0x02d1: 0x0008
Address 0x02d2: 0x8001
Address 0x02d3: 0x0509
Address 0x02d4: 0x0001
Address 0x02d5: 0x8000
Address 0x02d6: 0x0507
Address 0x02d7: 0x0011
Address 0x02d8: 0x8000
Address 0x02d9: 0x0006
Address 0x02da: 0x0509
Address 0x02db: 0x0003
Address 0x02dc: 0x8000
Address 0x02dd: 0x0004
Address 0x02de: 0x8001
Address 0x02df: 0x8000
Address 0x02e0: 0x02db
Address 0x02e1: 0x0007
Address 0x02e2: 0x8001
Address 0x02e3: 0x0509
Address 0x02e4: 0x0004
Address 0x02e5: 0x8001
Address 0x02e6: 0x8000
Address 0x02e7: 0x02d9
Address 0x02e8: 0x0008
Address 0x02e9: 0x8001
Address 0x02ea: 0x0509
Address 0x02eb: 0x0009
Address 0x02ec: 0x8000
Address 0x02ed: 0x7fff
Address 0x02ee: 0x7fff
Address 0x02ef: 0x0004
Address 0x02f0: 0x8001
Address 0x02f1: 0x8000
Address 0x02f2: 0x7ffe
Address 0x02f3: 0x0008
Address 0x02f4: 0x8001
Address 0x02f5: 0x0520
Address 0x02f6: 0x0004
Address 0x02f7: 0x8001
Address 0x02f8: 0x7ffe
Address 0x02f9: 0x8000
Address 0x02fa: 0x0008
Address 0x02fb: 0x8001
Address 0x02fc: 0x0520
Address 0x02fd: 0x0009
Address 0x02fe: 0x8000
Address 0x02ff: 0x4000
Address 0x0300: 0x4000
Address 0x0301: 0x0007
Address 0x0302: 0x8000
Address 0x0303: 0x0520
Address 0x0304: 0x0009
Address 0x0305: 0x8000
Address 0x0306: 0x4000
Address 0x0307: 0x4000
Address 0x0308: 0x0007
Address 0x0309: 0x8000
Address 0x030a: 0x0520
Address 0x030b: 0x000a
Address 0x030c: 0x8000
Address 0x030d: 0x0006
Address 0x030e: 0x0009
Address 0x030f: 0x0004
Address 0x0310: 0x8001
Address 0x0311: 0x8000
Address 0x0312: 0x002a
Address 0x0313: 0x0007
Address 0x0314: 0x8001
Address 0x0315: 0x0565
Address 0x0316: 0x0004
Address 0x0317: 0x8001
Address 0x0318: 0x8000
Address 0x0319: 0x0036
Address 0x031a: 0x0008
Address 0x031b: 0x8001
Address 0x031c: 0x0586
Address 0x031d: 0x000a
Address 0x031e: 0x8000
Address 0x031f: 0x3039
Address 0x0320: 0x7d7b
Address 0x0321: 0x0004
Address 0x0322: 0x8001
Address 0x0323: 0x8000
Address 0x0324: 0x0063
Address 0x0325: 0x0008
Address 0x0326: 0x8001
Address 0x0327: 0x0520
Address 0x0328: 0x000b
Address 0x0329: 0x8000
Address 0x032a: 0x0006
Address 0x032b: 0x0003
Address 0x032c: 0x0004
Address 0x032d: 0x8001
Address 0x032e: 0x8000
Address 0x032f: 0x0000
Address 0x0330: 0x0008
Address 0x0331: 0x8001
Address 0x0332: 0x059d
Address 0x0333: 0x000b
Address 0x0334: 0x8000
Address 0x0335: 0x0046
Address 0x0336: 0x0006
Address 0x0337: 0x0004
Address 0x0338: 0x8001
Address 0x0339: 0x8000
Address 0x033a: 0x0004
Address 0x033b: 0x0008
Address 0x033c: 0x8001
Address 0x033d: 0x059d
Address 0x033e: 0x000a
Address 0x033f: 0x8000
Address 0x0340: 0x7ffe
Address 0x0341: 0x000f
Address 0x0342: 0x0004
Address 0x0343: 0x8001
Address 0x0344: 0x8000
Address 0x0345: 0x7fe2
Address 0x0346: 0x0008
Address 0x0347: 0x8001
Address 0x0348: 0x0520
Address 0x0349: 0x0006
Address 0x034a: 0x034d
Address 0x034b: 0x4e20
Address 0x034c: 0x2710
Address 0x034d: 0x000f
Address 0x034e: 0x8000
Address 0x034f: 0x034b
Address 0x0350: 0x0004
Address 0x0351: 0x8001
Address 0x0352: 0x8000
Address 0x0353: 0x4e20
Address 0x0354: 0x0008
Address 0x0355: 0x8001
Address 0x0356: 0x04d7
Address 0x0357: 0x0009
Address 0x0358: 0x8002
Address 0x0359: 0x034b
Address 0x035a: 0x0001
Address 0x035b: 0x000f
Address 0x035c: 0x8000
Address 0x035d: 0x8002
Address 0x035e: 0x0004
Address 0x035f: 0x8001
Address 0x0360: 0x8000
Address 0x0361: 0x2710
Address 0x0362: 0x0008
Address 0x0363: 0x8001
Address 0x0364: 0x04d7
Address 0x0365: 0x0001
Address 0x0366: 0x8000
Address 0x0367: 0x034b
Address 0x0368: 0x0010
Address 0x0369: 0x8000
Address 0x036a: 0x7530
Address 0x036b: 0x000f
Address 0x036c: 0x8002
Address 0x036d: 0x8000
Address 0x036e: 0x0004
Address 0x036f: 0x8001
Address 0x0370: 0x8002
Address 0x0371: 0x7530
Address 0x0372: 0x0008
Address 0x0373: 0x8001
Address 0x0374: 0x04ee
Address 0x0375: 0x0011
Address 0x0376: 0x06bb
Address 0x0377: 0x000f
Address 0x0378: 0x8000
Address 0x0379: 0x17b4
Address 0x037a: 0x0004
Address 0x037b: 0x8001
Address 0x037c: 0x8000
Address 0x037d: 0x000b
Address 0x037e: 0x0008
Address 0x037f: 0x8001
Address 0x0380: 0x04d7
Address 0x0381: 0x0009
Address 0x0382: 0x8002
Address 0x0383: 0x17b4
Address 0x0384: 0x0001
Address 0x0385: 0x000f
Address 0x0386: 0x8000
Address 0x0387: 0x8002
Address 0x0388: 0x0004
Address 0x0389: 0x8001
Address 0x038a: 0x8000
Address 0x038b: 0x0074
Address 0x038c: 0x0008
Address 0x038d: 0x8001
Address 0x038e: 0x04d7
Address 0x038f: 0x0010
Address 0x0390: 0x8002
Address 0x0391: 0x0054
Address 0x0392: 0x000f
Address 0x0393: 0x8000
Address 0x0394: 0x8002
Address 0x0395: 0x0004
Address 0x0396: 0x8001
Address 0x0397: 0x8000
Address 0x0398: 0x0074
Address 0x0399: 0x0007
Address 0x039a: 0x8001
Address 0x039b: 0x04ee
Address 0x039c: 0x0004
Address 0x039d: 0x8001
Address 0x039e: 0x8000
Address 0x039f: 0x0054
Address 0x03a0: 0x0008
Address 0x03a1: 0x8001
Address 0x03a2: 0x04ee
Address 0x03a3: 0x0010
Address 0x03a4: 0x03a9
Address 0x03a5: 0x0015
Address 0x03a6: 0x0010
Address 0x03a7: 0x03aa
Address 0x03a8: 0x0007
Address 0x03a9: 0x0006
Address 0x03aa: 0x03ad
Address 0x03ab: 0x0013
Address 0x03ac: 0x03d2
Address 0x03ad: 0x0013
Address 0x03ae: 0x0077
Address 0x03af: 0x0013
Address 0x03b0: 0x006d
Address 0x03b1: 0x0013
Address 0x03b2: 0x0065
Address 0x03b3: 0x0013
Address 0x03b4: 0x006d
Address 0x03b5: 0x0013
Address 0x03b6: 0x0020
Address 0x03b7: 0x0013
Address 0x03b8: 0x006f
Address 0x03b9: 0x0013
Address 0x03ba: 0x0070
Address 0x03bb: 0x0013
Address 0x03bc: 0x0077
Address 0x03bd: 0x0013
Address 0x03be: 0x0072
Address 0x03bf: 0x0013
Address 0x03c0: 0x0069
Address 0x03c1: 0x0013
Address 0x03c2: 0x0074
Address 0x03c3: 0x0013
Address 0x03c4: 0x0065
Address 0x03c5: 0x0013
Address 0x03c6: 0x0020
Address 0x03c7: 0x0013
Address 0x03c8: 0x0066
Address 0x03c9: 0x0013
Address 0x03ca: 0x0061
Address 0x03cb: 0x0013
Address 0x03cc: 0x0069
Address 0x03cd: 0x0013
Address 0x03ce: 0x006c
Address 0x03cf: 0x0013
Address 0x03d0: 0x000a
Address 0x03d1: 0x0000
Address 0x03d2: 0x0009
Address 0x03d3: 0x8001
Address 0x03d4: 0x000a
Address 0x03d5: 0x17c0
Address 0x03d6: 0x0009
Address 0x03d7: 0x8001
Address 0x03d8: 0x8001
Address 0x03d9: 0x0001
Address 0x03da: 0x000f
Address 0x03db: 0x8002
Address 0x03dc: 0x17e4
Address 0x03dd: 0x0009
Address 0x03de: 0x8002
Address 0x03df: 0x8002
Address 0x03e0: 0x17e4
Address 0x03e1: 0x0001
Address 0x03e2: 0x8000
Address 0x03e3: 0x17e4
Address 0x03e4: 0x0009
Address 0x03e5: 0x8000
Address 0x03e6: 0x8000
Address 0x03e7: 0x0001
Address 0x03e8: 0x0005
Address 0x03e9: 0x8003
Address 0x03ea: 0x8000
Address 0x03eb: 0x8002
Address 0x03ec: 0x0007
Address 0x03ed: 0x8003
Address 0x03ee: 0x03ff
Address 0x03ef: 0x000f
Address 0x03f0: 0x8004
Address 0x03f1: 0x8000
Address 0x03f2: 0x0010
Address 0x03f3: 0x8001
Address 0x03f4: 0x8004
Address 0x03f5: 0x0009
Address 0x03f6: 0x8000
Address 0x03f7: 0x8000
Address 0x03f8: 0x0001
Address 0x03f9: 0x0009
Address 0x03fa: 0x8001
Address 0x03fb: 0x8001
Address 0x03fc: 0x0001
Address 0x03fd: 0x0006
Address 0x03fe: 0x03e8
Address 0x03ff: 0x000f
Address 0x0400: 0x8000
Address 0x0401: 0x17c0
Address 0x0402: 0x000f
Address 0x0403: 0x8001
Address 0x0404: 0x17d3
Address 0x0405: 0x0009
Address 0x0406: 0x8000
Address 0x0407: 0x8000
Address 0x0408: 0x8001
Address 0x0409: 0x0009
Address 0x040a: 0x8000
Address 0x040b: 0x8000
Address 0x040c: 0x0001
Address 0x040d: 0x0010
Address 0x040e: 0x17c0
Address 0x040f: 0x8000
Address 0x0410: 0x0010
Address 0x0411: 0x17d3
Address 0x0412: 0x002c
Address 0x0413: 0x0001
Address 0x0414: 0x8000
Address 0x0415: 0x17c0
Address 0x0416: 0x0011
Address 0x0417: 0x05ee
Address 0x0418: 0x0002
Address 0x0419: 0x8000
Address 0x041a: 0x0002
Address 0x041b: 0x8001
Address 0x041c: 0x0002
Address 0x041d: 0x8002
Address 0x041e: 0x0001
Address 0x041f: 0x8000
Address 0x0420: 0x68e3
Address 0x0421: 0x0001
Address 0x0422: 0x8001
Address 0x0423: 0x05fb
Address 0x0424: 0x0009
Address 0x0425: 0x8002
Address 0x0426: 0x3206
Address 0x0427: 0x1ff1
Address 0x0428: 0x0011
Address 0x0429: 0x05b2
Address 0x042a: 0x0003
Address 0x042b: 0x8002
Address 0x042c: 0x0003
Address 0x042d: 0x8001
Address 0x042e: 0x0003
Address 0x042f: 0x8000
Address 0x0430: 0x0006
Address 0x0431: 0x0aae
Address 0x0432: 0x0013
Address 0x0433: 0x006e
Address 0x0434: 0x0013
Address 0x0435: 0x006f
Address 0x0436: 0x0013
Address 0x0437: 0x0020
Address 0x0438: 0x0013
Address 0x0439: 0x006a
Address 0x043a: 0x0013
Address 0x043b: 0x0074
Address 0x043c: 0x0013
Address 0x043d: 0x002f
Address 0x043e: 0x0013
Address 0x043f: 0x006a
Address 0x0440: 0x0013
Address 0x0441: 0x0066
Address 0x0442: 0x0013
Address 0x0443: 0x000a
Address 0x0444: 0x0000
Address 0x0445: 0x0013
Address 0x0446: 0x006e
Address 0x0447: 0x0013
Address 0x0448: 0x006f
Address 0x0449: 0x0013
Address 0x044a: 0x006e
Address 0x044b: 0x0013
Address 0x044c: 0x007a
Address 0x044d: 0x0013
Address 0x044e: 0x0065
Address 0x044f: 0x0013
Address 0x0450: 0x0072
Address 0x0451: 0x0013
Address 0x0452: 0x006f
Address 0x0453: 0x0013
Address 0x0454: 0x0020
Address 0x0455: 0x0013
Address 0x0456: 0x0072
Address 0x0457: 0x0013
Address 0x0458: 0x0065
Address 0x0459: 0x0013
Address 0x045a: 0x0067
Address 0x045b: 0x0013
Address 0x045c: 0x000a
Address 0x045d: 0x0000
Address 0x045e: 0x0013
Address 0x045f: 0x006e
Address 0x0460: 0x0013
Address 0x0461: 0x006f
Address 0x0462: 0x0013
Address 0x0463: 0x0020
Address 0x0464: 0x0013
Address 0x0465: 0x0073
Address 0x0466: 0x0013
Address 0x0467: 0x0065
Address 0x0468: 0x0013
Address 0x0469: 0x0074
Address 0x046a: 0x0013
Address 0x046b: 0x0020
Address 0x046c: 0x0013
Address 0x046d: 0x006f
Address 0x046e: 0x0013
Address 0x046f: 0x0070
Address 0x0470: 0x0013
Address 0x0471: 0x000a
Address 0x0472: 0x0000
Address 0x0473: 0x0013
Address 0x0474: 0x006e
Address 0x0475: 0x0013
Address 0x0476: 0x006f
Address 0x0477: 0x0013
Address 0x0478: 0x0020
Address 0x0479: 0x0013
Address 0x047a: 0x0067
Address 0x047b: 0x0013
Address 0x047c: 0x0074
Address 0x047d: 0x0013
Address 0x047e: 0x0020
Address 0x047f: 0x0013
Address 0x0480: 0x006f
Address 0x0481: 0x0013
Address 0x0482: 0x0070
Address 0x0483: 0x0013
Address 0x0484: 0x000a
Address 0x0485: 0x0000
Address 0x0486: 0x0013
Address 0x0487: 0x006e
Address 0x0488: 0x0013
Address 0x0489: 0x006f
Address 0x048a: 0x0013
Address 0x048b: 0x0020
Address 0x048c: 0x0013
Address 0x048d: 0x0073
Address 0x048e: 0x0013
Address 0x048f: 0x0074
Address 0x0490: 0x0013
Address 0x0491: 0x0061
Address 0x0492: 0x0013
Address 0x0493: 0x0063
Address 0x0494: 0x0013
Address 0x0495: 0x006b
Address 0x0496: 0x0013
Address 0x0497: 0x000a
Address 0x0498: 0x0000
Address 0x0499: 0x0013
Address 0x049a: 0x006e
Address 0x049b: 0x0013
Address 0x049c: 0x006f
Address 0x049d: 0x0013
Address 0x049e: 0x0020
Address 0x049f: 0x0013
Address 0x04a0: 0x0062
Address 0x04a1: 0x0013
Address 0x04a2: 0x0069
Address 0x04a3: 0x0013
Address 0x04a4: 0x0074
Address 0x04a5: 0x0013
Address 0x04a6: 0x0077
Address 0x04a7: 0x0013
Address 0x04a8: 0x0069
Address 0x04a9: 0x0013
Address 0x04aa: 0x0073
Address 0x04ab: 0x0013
Address 0x04ac: 0x0065
Address 0x04ad: 0x0013
Address 0x04ae: 0x0020
Address 0x04af: 0x0013
Address 0x04b0: 0x0061
Address 0x04b1: 0x0013
Address 0x04b2: 0x006e
Address 0x04b3: 0x0013
Address 0x04b4: 0x0064
Address 0x04b5: 0x0013
Address 0x04b6: 0x000a
Address 0x04b7: 0x0000
Address 0x04b8: 0x0013
Address 0x04b9: 0x006e
Address 0x04ba: 0x0013
Address 0x04bb: 0x006f
Address 0x04bc: 0x0013
Address 0x04bd: 0x0020
Address 0x04be: 0x0013
Address 0x04bf: 0x0062
Address 0x04c0: 0x0013
Address 0x04c1: 0x0069
Address 0x04c2: 0x0013
Address 0x04c3: 0x0074
Address 0x04c4: 0x0013
Address 0x04c5: 0x0077
Address 0x04c6: 0x0013
Address 0x04c7: 0x0069
Address 0x04c8: 0x0013
Address 0x04c9: 0x0073
Address 0x04ca: 0x0013
Address 0x04cb: 0x0065
Address 0x04cc: 0x0013
Address 0x04cd: 0x0020
Address 0x04ce: 0x0013
Address 0x04cf: 0x006e
Address 0x04d0: 0x0013
Address 0x04d1: 0x006f
Address 0x04d2: 0x0013
Address 0x04d3: 0x0074
Address 0x04d4: 0x0013
Address 0x04d5: 0x000a
Address 0x04d6: 0x0000
Address 0x04d7: 0x0013
Address 0x04d8: 0x006e
Address 0x04d9: 0x0013
Address 0x04da: 0x006f
Address 0x04db: 0x0013
Address 0x04dc: 0x0020
Address 0x04dd: 0x0013
Address 0x04de: 0x0072
Address 0x04df: 0x0013
Address 0x04e0: 0x006d
Address 0x04e1: 0x0013
Address 0x04e2: 0x0065
Address 0x04e3: 0x0013
Address 0x04e4: 0x006d
Address 0x04e5: 0x0013
Address 0x04e6: 0x0020
Address 0x04e7: 0x0013
Address 0x04e8: 0x006f
Address 0x04e9: 0x0013
Address 0x04ea: 0x0070
Address 0x04eb: 0x0013
Address 0x04ec: 0x000a
Address 0x04ed: 0x0000
Address 0x04ee: 0x0013
Address 0x04ef: 0x006e
Address 0x04f0: 0x0013
Address 0x04f1: 0x006f
Address 0x04f2: 0x0013
Address 0x04f3: 0x0020
Address 0x04f4: 0x0013
Address 0x04f5: 0x0077
Address 0x04f6: 0x0013
Address 0x04f7: 0x006d
Address 0x04f8: 0x0013
Address 0x04f9: 0x0065
Address 0x04fa: 0x0013
Address 0x04fb: 0x006d
Address 0x04fc: 0x0013
Address 0x04fd: 0x0020
Address 0x04fe: 0x0013
Address 0x04ff: 0x006f
Address 0x0500: 0x0013
Address 0x0501: 0x0070
Address 0x0502: 0x0013
Address 0x0503: 0x000a
Address 0x0504: 0x0000
Address 0x0505: 0x0006
Address 0x0506: 0x02c4
Address 0x0507: 0x0006
Address 0x0508: 0x02db
Address 0x0509: 0x0013
Address 0x050a: 0x006e
Address 0x050b: 0x0013
Address 0x050c: 0x006f
Address 0x050d: 0x0013
Address 0x050e: 0x0020
Address 0x050f: 0x0013
Address 0x0510: 0x0063
Address 0x0511: 0x0013
Address 0x0512: 0x0061
Address 0x0513: 0x0013
Address 0x0514: 0x006c
Address 0x0515: 0x0013
Address 0x0516: 0x006c
Address 0x0517: 0x0013
Address 0x0518: 0x0020
Address 0x0519: 0x0013
Address 0x051a: 0x006f
Address 0x051b: 0x0013
Address 0x051c: 0x0070
Address 0x051d: 0x0013
Address 0x051e: 0x000a
Address 0x051f: 0x0000
Address 0x0520: 0x0013
Address 0x0521: 0x006e
Address 0x0522: 0x0013
Address 0x0523: 0x006f
Address 0x0524: 0x0013
Address 0x0525: 0x0020
Address 0x0526: 0x0013
Address 0x0527: 0x006d
Address 0x0528: 0x0013
Address 0x0529: 0x006f
Address 0x052a: 0x0013
Address 0x052b: 0x0064
Address 0x052c: 0x0013
Address 0x052d: 0x0075
Address 0x052e: 0x0013
Address 0x052f: 0x006c
Address 0x0530: 0x0013
Address 0x0531: 0x006f
Address 0x0532: 0x0013
Address 0x0533: 0x0020
Address 0x0534: 0x0013
Address 0x0535: 0x006d
Address 0x0536: 0x0013
Address 0x0537: 0x0061
Address 0x0538: 0x0013
Address 0x0539: 0x0074
Address 0x053a: 0x0013
Address 0x053b: 0x0068
Address 0x053c: 0x0013
Address 0x053d: 0x0020
Address 0x053e: 0x0013
Address 0x053f: 0x0064
Address 0x0540: 0x0013
Address 0x0541: 0x0075
Address 0x0542: 0x0013
Address 0x0543: 0x0072
Address 0x0544: 0x0013
Address 0x0545: 0x0069
Address 0x0546: 0x0013
Address 0x0547: 0x006e
Address 0x0548: 0x0013
Address 0x0549: 0x0067
Address 0x054a: 0x0013
Address 0x054b: 0x0020
Address 0x054c: 0x0013
Address 0x054d: 0x0061
Address 0x054e: 0x0013
Address 0x054f: 0x0064
Address 0x0550: 0x0013
Address 0x0551: 0x0064
Address 0x0552: 0x0013
Address 0x0553: 0x0020
Address 0x0554: 0x0013
Address 0x0555: 0x006f
Address 0x0556: 0x0013
Address 0x0557: 0x0072
Address 0x0558: 0x0013
Address 0x0559: 0x0020
Address 0x055a: 0x0013
Address 0x055b: 0x006d
Address 0x055c: 0x0013
Address 0x055d: 0x0075
Address 0x055e: 0x0013
Address 0x055f: 0x006c
Address 0x0560: 0x0013
Address 0x0561: 0x0074
Address 0x0562: 0x0013
Address 0x0563: 0x000a
Address 0x0564: 0x0000
Address 0x0565: 0x0013
Address 0x0566: 0x006e
Address 0x0567: 0x0013
Address 0x0568: 0x006f
Address 0x0569: 0x0013
Address 0x056a: 0x0074
Address 0x056b: 0x0013
Address 0x056c: 0x0020
Address 0x056d: 0x0013
Address 0x056e: 0x0068
Address 0x056f: 0x0013
Address 0x0570: 0x0069
Address 0x0571: 0x0013
Address 0x0572: 0x0074
Address 0x0573: 0x0013
Address 0x0574: 0x0063
Address 0x0575: 0x0013
Address 0x0576: 0x0068
Address 0x0577: 0x0013
Address 0x0578: 0x0068
Address 0x0579: 0x0013
Address 0x057a: 0x0069
Address 0x057b: 0x0013
Address 0x057c: 0x006b
Address 0x057d: 0x0013
Address 0x057e: 0x0069
Address 0x057f: 0x0013
Address 0x0580: 0x006e
Address 0x0581: 0x0013
Address 0x0582: 0x0067
Address 0x0583: 0x0013
Address 0x0584: 0x000a
Address 0x0585: 0x0000
Address 0x0586: 0x0013
Address 0x0587: 0x006e
Address 0x0588: 0x0013
Address 0x0589: 0x006f
Address 0x058a: 0x0013
Address 0x058b: 0x0020
Address 0x058c: 0x0013
Address 0x058d: 0x006d
Address 0x058e: 0x0013
Address 0x058f: 0x0075
Address 0x0590: 0x0013
Address 0x0591: 0x006c
Address 0x0592: 0x0013
Address 0x0593: 0x0074
Address 0x0594: 0x0013
Address 0x0595: 0x0020
Address 0x0596: 0x0013
Address 0x0597: 0x006f
Address 0x0598: 0x0013
Address 0x0599: 0x0070
Address 0x059a: 0x0013
Address 0x059b: 0x000a
Address 0x059c: 0x0000
Address 0x059d: 0x0013
Address 0x059e: 0x006e
Address 0x059f: 0x0013
Address 0x05a0: 0x006f
Address 0x05a1: 0x0013
Address 0x05a2: 0x0020
Address 0x05a3: 0x0013
Address 0x05a4: 0x006d
Address 0x05a5: 0x0013
Address 0x05a6: 0x006f
Address 0x05a7: 0x0013
Address 0x05a8: 0x0064
Address 0x05a9: 0x0013
Address 0x05aa: 0x0020
Address 0x05ab: 0x0013
Address 0x05ac: 0x006f
Address 0x05ad: 0x0013
Address 0x05ae: 0x0070
Address 0x05af: 0x0013
Address 0x05b0: 0x000a
Address 0x05b1: 0x0000
Address 0x05b2: 0x0002
Address 0x05b3: 0x8000
Address 0x05b4: 0x0002
Address 0x05b5: 0x8003
Address 0x05b6: 0x0002
Address 0x05b7: 0x8004
Address 0x05b8: 0x0002
Address 0x05b9: 0x8005
Address 0x05ba: 0x0002
Address 0x05bb: 0x8006
Address 0x05bc: 0x0001
Address 0x05bd: 0x8006
Address 0x05be: 0x8000
Address 0x05bf: 0x0001
Address 0x05c0: 0x8005
Address 0x05c1: 0x8001
Address 0x05c2: 0x000f
Address 0x05c3: 0x8004
Address 0x05c4: 0x8000
Address 0x05c5: 0x0001
Address 0x05c6: 0x8001
Address 0x05c7: 0x0000
Address 0x05c8: 0x0009
Address 0x05c9: 0x8003
Address 0x05ca: 0x0001
Address 0x05cb: 0x8001
Address 0x05cc: 0x0005
Address 0x05cd: 0x8000
Address 0x05ce: 0x8003
Address 0x05cf: 0x8004
Address 0x05d0: 0x0007
Address 0x05d1: 0x8000
Address 0x05d2: 0x05e3
Address 0x05d3: 0x0009
Address 0x05d4: 0x8003
Address 0x05d5: 0x8003
Address 0x05d6: 0x8006
Address 0x05d7: 0x000f
Address 0x05d8: 0x8000
Address 0x05d9: 0x8003
Address 0x05da: 0x0011
Address 0x05db: 0x8005
Address 0x05dc: 0x0009
Address 0x05dd: 0x8001
Address 0x05de: 0x8001
Address 0x05df: 0x0001
Address 0x05e0: 0x0007
Address 0x05e1: 0x8001
Address 0x05e2: 0x05c8
Address 0x05e3: 0x0003
Address 0x05e4: 0x8006
Address 0x05e5: 0x0003
Address 0x05e6: 0x8005
Address 0x05e7: 0x0003
Address 0x05e8: 0x8004
Address 0x05e9: 0x0003
Address 0x05ea: 0x8003
Address 0x05eb: 0x0003
Address 0x05ec: 0x8000
Address 0x05ed: 0x0012
Address 0x05ee: 0x0002
Address 0x05ef: 0x8001
Address 0x05f0: 0x0001
Address 0x05f1: 0x8001
Address 0x05f2: 0x05f8
Address 0x05f3: 0x0011
Address 0x05f4: 0x05b2
Address 0x05f5: 0x0003
Address 0x05f6: 0x8001
Address 0x05f7: 0x0012
Address 0x05f8: 0x0013
Address 0x05f9: 0x8000
Address 0x05fa: 0x0012
Address 0x05fb: 0x0002
Address 0x05fc: 0x8001
Address 0x05fd: 0x0001
Address 0x05fe: 0x8001
Address 0x05ff: 0x8002
Address 0x0600: 0x0011
Address 0x0601: 0x084d
Address 0x0602: 0x0013
Address 0x0603: 0x8000
Address 0x0604: 0x0003
Address 0x0605: 0x8001
Address 0x0606: 0x0012
Address 0x0607: 0x0002
Address 0x0608: 0x8001
Address 0x0609: 0x0002
Address 0x060a: 0x8003
Address 0x060b: 0x000f
Address 0x060c: 0x8003
Address 0x060d: 0x8000
Address 0x060e: 0x0008
Address 0x060f: 0x8003
Address 0x0610: 0x061b
Address 0x0611: 0x0011
Address 0x0612: 0x05b2
Address 0x0613: 0x0007
Address 0x0614: 0x8001
Address 0x0615: 0x061b
Address 0x0616: 0x0001
Address 0x0617: 0x8000
Address 0x0618: 0x8002
Address 0x0619: 0x0006
Address 0x061a: 0x061e
Address 0x061b: 0x0001
Address 0x061c: 0x8000
Address 0x061d: 0x7fff
Address 0x061e: 0x0003
Address 0x061f: 0x8003
Address 0x0620: 0x0003
Address 0x0621: 0x8001
Address 0x0622: 0x0012
Address 0x0623: 0x0002
Address 0x0624: 0x8001
Address 0x0625: 0x0002
Address 0x0626: 0x8002
Address 0x0627: 0x0001
Address 0x0628: 0x8002
Address 0x0629: 0x8001
Address 0x062a: 0x0001
Address 0x062b: 0x8001
Address 0x062c: 0x0645
Address 0x062d: 0x0011
Address 0x062e: 0x0607
Address 0x062f: 0x0003
Address 0x0630: 0x8002
Address 0x0631: 0x0003
Address 0x0632: 0x8001
Address 0x0633: 0x0012
Address 0x0634: 0x0002
Address 0x0635: 0x8001
Address 0x0636: 0x0002
Address 0x0637: 0x8002
Address 0x0638: 0x0001
Address 0x0639: 0x8002
Address 0x063a: 0x8001
Address 0x063b: 0x0001
Address 0x063c: 0x8001
Address 0x063d: 0x0670
Address 0x063e: 0x0011
Address 0x063f: 0x0607
Address 0x0640: 0x0003
Address 0x0641: 0x8002
Address 0x0642: 0x0003
Address 0x0643: 0x8001
Address 0x0644: 0x0012
Address 0x0645: 0x0004
Address 0x0646: 0x8000
Address 0x0647: 0x8000
Address 0x0648: 0x8002
Address 0x0649: 0x0008
Address 0x064a: 0x8000
Address 0x064b: 0x0652
Address 0x064c: 0x0001
Address 0x064d: 0x8002
Address 0x064e: 0x8001
Address 0x064f: 0x0001
Address 0x0650: 0x8001
Address 0x0651: 0x7fff
Address 0x0652: 0x0012
Address 0x0653: 0x0002
Address 0x0654: 0x8003
Address 0x0655: 0x0009
Address 0x0656: 0x8003
Address 0x0657: 0x8002
Address 0x0658: 0x0001
Address 0x0659: 0x0009
Address 0x065a: 0x8003
Address 0x065b: 0x8003
Address 0x065c: 0x8001
Address 0x065d: 0x000f
Address 0x065e: 0x8003
Address 0x065f: 0x8003
Address 0x0660: 0x0004
Address 0x0661: 0x8003
Address 0x0662: 0x8000
Address 0x0663: 0x8003
Address 0x0664: 0x0007
Address 0x0665: 0x8003
Address 0x0666: 0x066d
Address 0x0667: 0x0001
Address 0x0668: 0x8002
Address 0x0669: 0x8001
Address 0x066a: 0x0001
Address 0x066b: 0x8001
Address 0x066c: 0x7fff
Address 0x066d: 0x0003
Address 0x066e: 0x8003
Address 0x066f: 0x0012
Address 0x0670: 0x0002
Address 0x0671: 0x8001
Address 0x0672: 0x0001
Address 0x0673: 0x8001
Address 0x0674: 0x8002
Address 0x0675: 0x0011
Address 0x0676: 0x0683
Address 0x0677: 0x0003
Address 0x0678: 0x8001
Address 0x0679: 0x0008
Address 0x067a: 0x8000
Address 0x067b: 0x0682
Address 0x067c: 0x0001
Address 0x067d: 0x8002
Address 0x067e: 0x8001
Address 0x067f: 0x0001
Address 0x0680: 0x8001
Address 0x0681: 0x7fff
Address 0x0682: 0x0012
Address 0x0683: 0x0002
Address 0x0684: 0x8001
Address 0x0685: 0x0002
Address 0x0686: 0x8002
Address 0x0687: 0x0002
Address 0x0688: 0x8003
Address 0x0689: 0x0002
Address 0x068a: 0x8004
Address 0x068b: 0x000f
Address 0x068c: 0x8003
Address 0x068d: 0x8000
Address 0x068e: 0x000f
Address 0x068f: 0x8004
Address 0x0690: 0x8001
Address 0x0691: 0x0004
Address 0x0692: 0x8002
Address 0x0693: 0x8003
Address 0x0694: 0x8004
Address 0x0695: 0x0008
Address 0x0696: 0x8002
Address 0x0697: 0x06af
Address 0x0698: 0x000d
Address 0x0699: 0x8002
Address 0x069a: 0x8003
Address 0x069b: 0x8004
Address 0x069c: 0x0008
Address 0x069d: 0x8002
Address 0x069e: 0x06aa
Address 0x069f: 0x0001
Address 0x06a0: 0x8002
Address 0x06a1: 0x8001
Address 0x06a2: 0x0001
Address 0x06a3: 0x8001
Address 0x06a4: 0x0653
Address 0x06a5: 0x0011
Address 0x06a6: 0x05b2
Address 0x06a7: 0x0008
Address 0x06a8: 0x8001
Address 0x06a9: 0x06af
Address 0x06aa: 0x0001
Address 0x06ab: 0x8000
Address 0x06ac: 0x0001
Address 0x06ad: 0x0006
Address 0x06ae: 0x06b2
Address 0x06af: 0x0001
Address 0x06b0: 0x8000
Address 0x06b1: 0x0000
Address 0x06b2: 0x0003
Address 0x06b3: 0x8004
Address 0x06b4: 0x0003
Address 0x06b5: 0x8003
Address 0x06b6: 0x0003
Address 0x06b7: 0x8002
Address 0x06b8: 0x0003
Address 0x06b9: 0x8001
Address 0x06ba: 0x0012
Address 0x06bb: 0x0002
Address 0x06bc: 0x8000
Address 0x06bd: 0x0002
Address 0x06be: 0x8001
Address 0x06bf: 0x0001
Address 0x06c0: 0x8001
Address 0x06c1: 0x17b4
Address 0x06c2: 0x000f
Address 0x06c3: 0x8000
Address 0x06c4: 0x8001
Address 0x06c5: 0x0002
Address 0x06c6: 0x8001
Address 0x06c7: 0x000a
Address 0x06c8: 0x8001
Address 0x06c9: 0x8001
Address 0x06ca: 0x8001
Address 0x06cb: 0x0011
Address 0x06cc: 0x084d
Address 0x06cd: 0x0001
Address 0x06ce: 0x8001
Address 0x06cf: 0x4154
Address 0x06d0: 0x0011
Address 0x06d1: 0x084d
Address 0x06d2: 0x0003
Address 0x06d3: 0x8001
Address 0x06d4: 0x0010
Address 0x06d5: 0x8001
Address 0x06d6: 0x8000
Address 0x06d7: 0x0009
Address 0x06d8: 0x8001
Address 0x06d9: 0x8001
Address 0x06da: 0x0001
Address 0x06db: 0x0004
Address 0x06dc: 0x8000
Address 0x06dd: 0x7562
Address 0x06de: 0x8001
Address 0x06df: 0x0008
Address 0x06e0: 0x8000
Address 0x06e1: 0x06c2
Address 0x06e2: 0x0003
Address 0x06e3: 0x8001
Address 0x06e4: 0x0003
Address 0x06e5: 0x8000
Address 0x06e6: 0x0012
Address 0x06e7: 0x0002
Address 0x06e8: 0x8000
Address 0x06e9: 0x0002
Address 0x06ea: 0x8002
Address 0x06eb: 0x0002
Address 0x06ec: 0x8003
Address 0x06ed: 0x0002
Address 0x06ee: 0x8004
Address 0x06ef: 0x0002
Address 0x06f0: 0x8005
Address 0x06f1: 0x0009
Address 0x06f2: 0x8002
Address 0x06f3: 0x8001
Address 0x06f4: 0x8000
Address 0x06f5: 0x0001
Address 0x06f6: 0x8000
Address 0x06f7: 0x8001
Address 0x06f8: 0x0001
Address 0x06f9: 0x8005
Address 0x06fa: 0x0000
Address 0x06fb: 0x0009
Address 0x06fc: 0x8000
Address 0x06fd: 0x8000
Address 0x06fe: 0x0001
Address 0x06ff: 0x0005
Address 0x0700: 0x8003
Address 0x0701: 0x8000
Address 0x0702: 0x8002
Address 0x0703: 0x0007
Address 0x0704: 0x8003
Address 0x0705: 0x0718
Address 0x0706: 0x0014
Address 0x0707: 0x8004
Address 0x0708: 0x0004
Address 0x0709: 0x8003
Address 0x070a: 0x8004
Address 0x070b: 0x000a
Address 0x070c: 0x0007
Address 0x070d: 0x8003
Address 0x070e: 0x0718
Address 0x070f: 0x0010
Address 0x0710: 0x8000
Address 0x0711: 0x8004
Address 0x0712: 0x0009
Address 0x0713: 0x8005
Address 0x0714: 0x8005
Address 0x0715: 0x0001
Address 0x0716: 0x0006
Address 0x0717: 0x06fb
Address 0x0718: 0x0010
Address 0x0719: 0x8001
Address 0x071a: 0x8005
Address 0x071b: 0x0004
Address 0x071c: 0x8003
Address 0x071d: 0x8004
Address 0x071e: 0x000a
Address 0x071f: 0x0007
Address 0x0720: 0x8003
Address 0x0721: 0x0726
Address 0x0722: 0x0014
Address 0x0723: 0x8004
Address 0x0724: 0x0006
Address 0x0725: 0x071b
Address 0x0726: 0x0003
Address 0x0727: 0x8005
Address 0x0728: 0x0003
Address 0x0729: 0x8004
Address 0x072a: 0x0003
Address 0x072b: 0x8003
Address 0x072c: 0x0003
Address 0x072d: 0x8002
Address 0x072e: 0x0003
Address 0x072f: 0x8000
Address 0x0730: 0x0012
Address 0x0731: 0x0002
Address 0x0732: 0x8003
Address 0x0733: 0x0002
Address 0x0734: 0x8004
Address 0x0735: 0x0002
Address 0x0736: 0x8005
Address 0x0737: 0x0002
Address 0x0738: 0x8006
Address 0x0739: 0x0001
Address 0x073a: 0x8006
Address 0x073b: 0x0001
Address 0x073c: 0x0009
Address 0x073d: 0x8004
Address 0x073e: 0x8003
Address 0x073f: 0x8006
Address 0x0740: 0x000f
Address 0x0741: 0x8004
Address 0x0742: 0x8004
Address 0x0743: 0x0009
Address 0x0744: 0x8005
Address 0x0745: 0x17ed
Address 0x0746: 0x8006
Address 0x0747: 0x0010
Address 0x0748: 0x8005
Address 0x0749: 0x8004
Address 0x074a: 0x0009
Address 0x074b: 0x8006
Address 0x074c: 0x8006
Address 0x074d: 0x0001
Address 0x074e: 0x000f
Address 0x074f: 0x8005
Address 0x0750: 0x17ed
Address 0x0751: 0x0005
Address 0x0752: 0x8004
Address 0x0753: 0x8006
Address 0x0754: 0x8005
Address 0x0755: 0x0008
Address 0x0756: 0x8004
Address 0x0757: 0x073c
Address 0x0758: 0x0001
Address 0x0759: 0x8003
Address 0x075a: 0x0000
Address 0x075b: 0x0001
Address 0x075c: 0x8004
Address 0x075d: 0x0000
Address 0x075e: 0x000f
Address 0x075f: 0x8005
Address 0x0760: 0x17ed
Address 0x0761: 0x000b
Address 0x0762: 0x8005
Address 0x0763: 0x8004
Address 0x0764: 0x8005
Address 0x0765: 0x0009
Address 0x0766: 0x8005
Address 0x0767: 0x8005
Address 0x0768: 0x17ed
Address 0x0769: 0x0009
Address 0x076a: 0x8005
Address 0x076b: 0x8005
Address 0x076c: 0x0001
Address 0x076d: 0x000f
Address 0x076e: 0x8006
Address 0x076f: 0x8005
Address 0x0770: 0x000a
Address 0x0771: 0x8006
Address 0x0772: 0x8006
Address 0x0773: 0x1481
Address 0x0774: 0x0009
Address 0x0775: 0x8006
Address 0x0776: 0x8006
Address 0x0777: 0x3039
Address 0x0778: 0x0010
Address 0x0779: 0x8005
Address 0x077a: 0x8006
Address 0x077b: 0x0002
Address 0x077c: 0x8000
Address 0x077d: 0x0002
Address 0x077e: 0x8001
Address 0x077f: 0x0001
Address 0x0780: 0x8001
Address 0x0781: 0x8006
Address 0x0782: 0x0011
Address 0x0783: 0x084d
Address 0x0784: 0x0001
Address 0x0785: 0x8006
Address 0x0786: 0x8000
Address 0x0787: 0x0003
Address 0x0788: 0x8001
Address 0x0789: 0x0003
Address 0x078a: 0x8000
Address 0x078b: 0x000f
Address 0x078c: 0x8005
Address 0x078d: 0x8001
Address 0x078e: 0x000b
Address 0x078f: 0x8006
Address 0x0790: 0x8006
Address 0x0791: 0x8005
Address 0x0792: 0x0009
Address 0x0793: 0x8006
Address 0x0794: 0x8006
Address 0x0795: 0x0001
Address 0x0796: 0x0005
Address 0x0797: 0x8005
Address 0x0798: 0x8006
Address 0x0799: 0x8002
Address 0x079a: 0x0007
Address 0x079b: 0x8005
Address 0x079c: 0x07a0
Address 0x079d: 0x0001
Address 0x079e: 0x8003
Address 0x079f: 0x0001
Address 0x07a0: 0x0009
Address 0x07a1: 0x8006
Address 0x07a2: 0x8006
Address 0x07a3: 0x8001
Address 0x07a4: 0x000f
Address 0x07a5: 0x8006
Address 0x07a6: 0x8006
Address 0x07a7: 0x0009
Address 0x07a8: 0x8004
Address 0x07a9: 0x8004
Address 0x07aa: 0x0001
Address 0x07ab: 0x0009
Address 0x07ac: 0x8005
Address 0x07ad: 0x8004
Address 0x07ae: 0x17f1
Address 0x07af: 0x0010
Address 0x07b0: 0x8005
Address 0x07b1: 0x8006
Address 0x07b2: 0x000f
Address 0x07b3: 0x8005
Address 0x07b4: 0x17f1
Address 0x07b5: 0x0004
Address 0x07b6: 0x8005
Address 0x07b7: 0x8004
Address 0x07b8: 0x8005
Address 0x07b9: 0x0008
Address 0x07ba: 0x8005
Address 0x07bb: 0x075e
Address 0x07bc: 0x0008
Address 0x07bd: 0x8003
Address 0x07be: 0x0758
Address 0x07bf: 0x0002
Address 0x07c0: 0x8000
Address 0x07c1: 0x0001
Address 0x07c2: 0x8000
Address 0x07c3: 0x17f1
Address 0x07c4: 0x0011
Address 0x07c5: 0x05ee
Address 0x07c6: 0x0003
Address 0x07c7: 0x8000
Address 0x07c8: 0x0003
Address 0x07c9: 0x8006
Address 0x07ca: 0x0003
Address 0x07cb: 0x8005
Address 0x07cc: 0x0003
Address 0x07cd: 0x8004
Address 0x07ce: 0x0003
Address 0x07cf: 0x8003
Address 0x07d0: 0x0012
Address 0x07d1: 0x0002
Address 0x07d2: 0x8000
Address 0x07d3: 0x0002
Address 0x07d4: 0x8001
Address 0x07d5: 0x0002
Address 0x07d6: 0x8002
Address 0x07d7: 0x0002
Address 0x07d8: 0x8003
Address 0x07d9: 0x0002
Address 0x07da: 0x8004
Address 0x07db: 0x0002
Address 0x07dc: 0x8005
Address 0x07dd: 0x0001
Address 0x07de: 0x8002
Address 0x07df: 0x0001
Address 0x07e0: 0x0001
Address 0x07e1: 0x8005
Address 0x07e2: 0x0000
Address 0x07e3: 0x0008
Address 0x07e4: 0x8000
Address 0x07e5: 0x082c
Address 0x07e6: 0x0004
Address 0x07e7: 0x8004
Address 0x07e8: 0x8002
Address 0x07e9: 0x2710
Address 0x07ea: 0x0001
Address 0x07eb: 0x8003
Address 0x07ec: 0x8000
Address 0x07ed: 0x0007
Address 0x07ee: 0x8004
Address 0x07ef: 0x07f8
Address 0x07f0: 0x000a
Address 0x07f1: 0x8001
Address 0x07f2: 0x8002
Address 0x07f3: 0x000a
Address 0x07f4: 0x000b
Address 0x07f5: 0x8003
Address 0x07f6: 0x8000
Address 0x07f7: 0x8001
Address 0x07f8: 0x0001
Address 0x07f9: 0x8004
Address 0x07fa: 0x0000
Address 0x07fb: 0x000a
Address 0x07fc: 0x8002
Address 0x07fd: 0x8002
Address 0x07fe: 0x7fff
Address 0x07ff: 0x0008
Address 0x0800: 0x8003
Address 0x0801: 0x080c
Address 0x0802: 0x0009
Address 0x0803: 0x8004
Address 0x0804: 0x8004
Address 0x0805: 0x0001
Address 0x0806: 0x0009
Address 0x0807: 0x8003
Address 0x0808: 0x8003
Address 0x0809: 0x8002
Address 0x080a: 0x0006
Address 0x080b: 0x07ff
Address 0x080c: 0x000a
Address 0x080d: 0x8002
Address 0x080e: 0x8002
Address 0x080f: 0x7fff
Address 0x0810: 0x000a
Address 0x0811: 0x8003
Address 0x0812: 0x8004
Address 0x0813: 0x8002
Address 0x0814: 0x000a
Address 0x0815: 0x8003
Address 0x0816: 0x8003
Address 0x0817: 0x7fff
Address 0x0818: 0x0009
Address 0x0819: 0x8000
Address 0x081a: 0x8000
Address 0x081b: 0x8003
Address 0x081c: 0x0009
Address 0x081d: 0x8004
Address 0x081e: 0x8004
Address 0x081f: 0x0030
Address 0x0820: 0x000a
Address 0x0821: 0x8002
Address 0x0822: 0x8002
Address 0x0823: 0x000a
Address 0x0824: 0x0009
Address 0x0825: 0x8005
Address 0x0826: 0x8005
Address 0x0827: 0x0001
Address 0x0828: 0x0002
Address 0x0829: 0x8004
Address 0x082a: 0x0006
Address 0x082b: 0x07e3
Address 0x082c: 0x0007
Address 0x082d: 0x8005
Address 0x082e: 0x0833
Address 0x082f: 0x0013
Address 0x0830: 0x0030
Address 0x0831: 0x0006
Address 0x0832: 0x0840
Address 0x0833: 0x0008
Address 0x0834: 0x8005
Address 0x0835: 0x0840
Address 0x0836: 0x0003
Address 0x0837: 0x8000
Address 0x0838: 0x0013
Address 0x0839: 0x8000
Address 0x083a: 0x0009
Address 0x083b: 0x8005
Address 0x083c: 0x8005
Address 0x083d: 0x7fff
Address 0x083e: 0x0006
Address 0x083f: 0x0833
Address 0x0840: 0x0003
Address 0x0841: 0x8005
Address 0x0842: 0x0003
Address 0x0843: 0x8004
Address 0x0844: 0x0003
Address 0x0845: 0x8003
Address 0x0846: 0x0003
Address 0x0847: 0x8002
Address 0x0848: 0x0003
Address 0x0849: 0x8001
Address 0x084a: 0x0003
Address 0x084b: 0x8000
Address 0x084c: 0x0012
Address 0x084d: 0x0002
Address 0x084e: 0x8001
Address 0x084f: 0x0002
Address 0x0850: 0x8002
Address 0x0851: 0x000c
Address 0x0852: 0x8002
Address 0x0853: 0x8000
Address 0x0854: 0x8001
Address 0x0855: 0x000e
Address 0x0856: 0x8002
Address 0x0857: 0x8002
Address 0x0858: 0x000d
Address 0x0859: 0x8000
Address 0x085a: 0x8000
Address 0x085b: 0x8001
Address 0x085c: 0x000c
Address 0x085d: 0x8000
Address 0x085e: 0x8000
Address 0x085f: 0x8002
Address 0x0860: 0x0003
Address 0x0861: 0x8002
Address 0x0862: 0x0003
Address 0x0863: 0x8001
Address 0x0864: 0x0012
Address 0x0865: 0x0009
Address 0x0866: 0x8000
Address 0x0867: 0x8000
Address 0x0868: 0x8001
Address 0x0869: 0x0005
Address 0x086a: 0x8001
Address 0x086b: 0x8001
Address 0x086c: 0x8000
Address 0x086d: 0x0012
Address 0x086e: 0x0002
Address 0x086f: 0x8002
Address 0x0870: 0x0005
Address 0x0871: 0x8002
Address 0x0872: 0x8001
Address 0x0873: 0x8000
Address 0x0874: 0x000a
Address 0x0875: 0x8001
Address 0x0876: 0x8001
Address 0x0877: 0x7fff
Address 0x0878: 0x0009
Address 0x0879: 0x8000
Address 0x087a: 0x8000
Address 0x087b: 0x8001
Address 0x087c: 0x0001
Address 0x087d: 0x8001
Address 0x087e: 0x8002
Address 0x087f: 0x0003
Address 0x0880: 0x8002
Address 0x0881: 0x0012
Address 0x0882: 0x0008
Address 0x0883: 0x8000
Address 0x0884: 0x08c1
Address 0x0885: 0x0008
Address 0x0886: 0x8001
Address 0x0887: 0x08c1
Address 0x0888: 0x0002
Address 0x0889: 0x8002
Address 0x088a: 0x0002
Address 0x088b: 0x8003
Address 0x088c: 0x0005
Address 0x088d: 0x8002
Address 0x088e: 0x8001
Address 0x088f: 0x8000
Address 0x0890: 0x0007
Address 0x0891: 0x8002
Address 0x0892: 0x089c
Address 0x0893: 0x0001
Address 0x0894: 0x8002
Address 0x0895: 0x8000
Address 0x0896: 0x0001
Address 0x0897: 0x8000
Address 0x0898: 0x8001
Address 0x0899: 0x0001
Address 0x089a: 0x8001
Address 0x089b: 0x8002
Address 0x089c: 0x0001
Address 0x089d: 0x8002
Address 0x089e: 0x8000
Address 0x089f: 0x0001
Address 0x08a0: 0x8000
Address 0x08a1: 0x0000
Address 0x08a2: 0x0009
Address 0x08a3: 0x8000
Address 0x08a4: 0x8000
Address 0x08a5: 0x8001
Address 0x08a6: 0x0005
Address 0x08a7: 0x8003
Address 0x08a8: 0x8001
Address 0x08a9: 0x8000
Address 0x08aa: 0x0007
Address 0x08ab: 0x8003
Address 0x08ac: 0x08b9
Address 0x08ad: 0x0009
Address 0x08ae: 0x8002
Address 0x08af: 0x8002
Address 0x08b0: 0x7fff
Address 0x08b1: 0x0007
Address 0x08b2: 0x8002
Address 0x08b3: 0x08a2
Address 0x08b4: 0x0001
Address 0x08b5: 0x8001
Address 0x08b6: 0x0000
Address 0x08b7: 0x0006
Address 0x08b8: 0x08bc
Address 0x08b9: 0x0001
Address 0x08ba: 0x8001
Address 0x08bb: 0x0001
Address 0x08bc: 0x0003
Address 0x08bd: 0x8003
Address 0x08be: 0x0003
Address 0x08bf: 0x8002
Address 0x08c0: 0x0012
Address 0x08c1: 0x0001
Address 0x08c2: 0x8000
Address 0x08c3: 0x0000
Address 0x08c4: 0x0001
Address 0x08c5: 0x8001
Address 0x08c6: 0x0000
Address 0x08c7: 0x0012
Address 0x08c8: 0x0002
Address 0x08c9: 0x8001
Address 0x08ca: 0x0002
Address 0x08cb: 0x8002
Address 0x08cc: 0x0008
Address 0x08cd: 0x8001
Address 0x08ce: 0x08e4
Address 0x08cf: 0x0009
Address 0x08d0: 0x8001
Address 0x08d1: 0x8001
Address 0x08d2: 0x7fff
Address 0x08d3: 0x000c
Address 0x08d4: 0x8002
Address 0x08d5: 0x8000
Address 0x08d6: 0x4000
Address 0x08d7: 0x000a
Address 0x08d8: 0x8000
Address 0x08d9: 0x8000
Address 0x08da: 0x0002
Address 0x08db: 0x0008
Address 0x08dc: 0x8002
Address 0x08dd: 0x08cc
Address 0x08de: 0x000d
Address 0x08df: 0x8000
Address 0x08e0: 0x8000
Address 0x08e1: 0x0001
Address 0x08e2: 0x0006
Address 0x08e3: 0x08cc
Address 0x08e4: 0x0003
Address 0x08e5: 0x8002
Address 0x08e6: 0x0003
Address 0x08e7: 0x8001
Address 0x08e8: 0x0012
Address 0x08e9: 0x0002
Address 0x08ea: 0x8001
Address 0x08eb: 0x0005
Address 0x08ec: 0x8001
Address 0x08ed: 0x8000
Address 0x08ee: 0x000e
Address 0x08ef: 0x0007
Address 0x08f0: 0x8001
Address 0x08f1: 0x0905
Address 0x08f2: 0x0001
Address 0x08f3: 0x8001
Address 0x08f4: 0x8000
Address 0x08f5: 0x0001
Address 0x08f6: 0x8000
Address 0x08f7: 0x0001
Address 0x08f8: 0x0008
Address 0x08f9: 0x8001
Address 0x08fa: 0x0908
Address 0x08fb: 0x0009
Address 0x08fc: 0x8001
Address 0x08fd: 0x8001
Address 0x08fe: 0x7fff
Address 0x08ff: 0x000a
Address 0x0900: 0x8000
Address 0x0901: 0x8000
Address 0x0902: 0x0002
Address 0x0903: 0x0006
Address 0x0904: 0x08f8
Address 0x0905: 0x0001
Address 0x0906: 0x8000
Address 0x0907: 0x7fff
Address 0x0908: 0x0003
Address 0x0909: 0x8001
Address 0x090a: 0x0012
Address 0x090b: 0x0006
Address 0x090c: 0x0aae
Address 0x090d: 0x17fe
Address 0x090e: 0x1808
Address 0x090f: 0x6914
Address 0x0910: 0x6917
Address 0x0911: 0x0000
Address 0x0912: 0x18ce
Address 0x0913: 0x18d8
Address 0x0914: 0x691a
Address 0x0915: 0x691c
Address 0x0916: 0x0000
Address 0x0917: 0x1929
Address 0x0918: 0x1933
Address 0x0919: 0x691e
Address 0x091a: 0x6921
Address 0x091b: 0x0000
Address 0x091c: 0x19c5
Address 0x091d: 0x19cf
Address 0x091e: 0x6924
Address 0x091f: 0x6927
Address 0x0920: 0x0000
Address 0x0921: 0x1a37
Address 0x0922: 0x1a41
Address 0x0923: 0x692a
Address 0x0924: 0x692d
Address 0x0925: 0x0000
Address 0x0926: 0x1b0a
Address 0x0927: 0x1b16
Address 0x0928: 0x6930
Address 0x0929: 0x6933
Address 0x092a: 0x0000
Address 0x092b: 0x1b9e
Address 0x092c: 0x1bb7
Address 0x092d: 0x6936
Address 0x092e: 0x6938
Address 0x092f: 0x0000
Address 0x0930: 0x1c66
Address 0x0931: 0x1c72
Address 0x0932: 0x693a
Address 0x0933: 0x693d
Address 0x0934: 0x0000
Address 0x0935: 0x1d4e
Address 0x0936: 0x1d5a
Address 0x0937: 0x6940
Address 0x0938: 0x6942
Address 0x0939: 0x0000
Address 0x093a: 0x1dc0
Address 0x093b: 0x1dcc
Address 0x093c: 0x6944
Address 0x093d: 0x6947
Address 0x093e: 0x0000
Address 0x093f: 0x1e77
Address 0x0940: 0x1e7f
Address 0x0941: 0x694a
Address 0x0942: 0x694e
Address 0x0943: 0x0000
Address 0x0944: 0x1f47
Address 0x0945: 0x6952
Address 0x0946: 0x6955
Address 0x0947: 0x6958
Address 0x0948: 0x0000
Address 0x0949: 0x1fe3
Address 0x094a: 0x1ff3
Address 0x094b: 0x695b
Address 0x094c: 0x6961
Address 0x094d: 0x0e9e
Address 0x094e: 0x208c
Address 0x094f: 0x209c
Address 0x0950: 0x6967
Address 0x0951: 0x696b
Address 0x0952: 0x0ea2
Address 0x0953: 0x20e5
Address 0x0954: 0x20f5
Address 0x0955: 0x696f
Address 0x0956: 0x6973
Address 0x0957: 0x0eac
Address 0x0958: 0x213e
Address 0x0959: 0x214e
Address 0x095a: 0x6977
Address 0x095b: 0x697c
Address 0x095c: 0x0eb6
Address 0x095d: 0x21e1
Address 0x095e: 0x21f1
Address 0x095f: 0x6981
Address 0x0960: 0x6985
Address 0x0961: 0x0ec0
Address 0x0962: 0x223a
Address 0x0963: 0x224a
Address 0x0964: 0x6989
Address 0x0965: 0x698e
Address 0x0966: 0x0eca
Address 0x0967: 0x22e4
Address 0x0968: 0x22f4
Address 0x0969: 0x6993
Address 0x096a: 0x6997
Address 0x096b: 0x0ed4
Address 0x096c: 0x233d
Address 0x096d: 0x234d
Address 0x096e: 0x699b
Address 0x096f: 0x699d
Address 0x0970: 0x0ede
Address 0x0971: 0x238a
Address 0x0972: 0x239a
Address 0x0973: 0x699f
Address 0x0974: 0x69a1
Address 0x0975: 0x0000
Address 0x0976: 0x23d7
Address 0x0977: 0x23e7
Address 0x0978: 0x69a3
Address 0x0979: 0x69a6
Address 0x097a: 0x0e48
Address 0x097b: 0x242b
Address 0x097c: 0x2438
Address 0x097d: 0x69a9
Address 0x097e: 0x69ac
Address 0x097f: 0x0e48
Address 0x0980: 0x24b5
Address 0x0981: 0x24c2
Address 0x0982: 0x69af
Address 0x0983: 0x69b2
Address 0x0984: 0x0e48
Address 0x0985: 0x24ef
Address 0x0986: 0x24fc
Address 0x0987: 0x69b5
Address 0x0988: 0x69b8
Address 0x0989: 0x0e48
Address 0x098a: 0x2529
Address 0x098b: 0x2536
Address 0x098c: 0x69bb
Address 0x098d: 0x69be
Address 0x098e: 0x0e48
Address 0x098f: 0x25a5
Address 0x0990: 0x25ab
Address 0x0991: 0x69c1
Address 0x0992: 0x69c4
Address 0x0993: 0x0000
Address 0x0994: 0x26af
Address 0x0995: 0x26b5
Address 0x0996: 0x69c7
Address 0x0997: 0x69ca
Address 0x0998: 0x0000
Address 0x0999: 0x2777
Address 0x099a: 0x277d
Address 0x099b: 0x69cd
Address 0x099c: 0x69d2
Address 0x099d: 0x0000
Address 0x099e: 0x0000
Address 0x099f: 0x28b9
Address 0x09a0: 0x28bf
Address 0x09a1: 0x69e3
Address 0x09a2: 0x69e5
Address 0x09a3: 0x0f35
Address 0x09a4: 0x296d
Address 0x09a5: 0x2973
Address 0x09a6: 0x69e7
Address 0x09a7: 0x69ea
Address 0x09a8: 0x0000
Address 0x09a9: 0x2a08
Address 0x09aa: 0x2a0e
Address 0x09ab: 0x69ed
Address 0x09ac: 0x69ef
Address 0x09ad: 0x0000
Address 0x09ae: 0x2a8c
Address 0x09af: 0x2a92
Address 0x09b0: 0x69f1
Address 0x09b1: 0x69f4
Address 0x09b2: 0x0000
Address 0x09b3: 0x2b4e
Address 0x09b4: 0x2b54
Address 0x09b5: 0x69f7
Address 0x09b6: 0x69f9
Address 0x09b7: 0x0000
Address 0x09b8: 0x2c03
Address 0x09b9: 0x2c18
Address 0x09ba: 0x69fb
Address 0x09bb: 0x69fd
Address 0x09bc: 0x0000
Address 0x09bd: 0x2d20
Address 0x09be: 0x2d35
Address 0x09bf: 0x69ff
Address 0x09c0: 0x6a01
Address 0x09c1: 0x0000
Address 0x09c2: 0x2dce
Address 0x09c3: 0x2dd4
Address 0x09c4: 0x6a03
Address 0x09c5: 0x6a07
Address 0x09c6: 0x0000
Address 0x09c7: 0x2e8f
Address 0x09c8: 0x2e95
Address 0x09c9: 0x6a0b
Address 0x09ca: 0x6a0e
Address 0x09cb: 0x0000
Address 0x09cc: 0x2fa7
Address 0x09cd: 0x2fad
Address 0x09ce: 0x6a11
Address 0x09cf: 0x6a14
Address 0x09d0: 0x0000
Address 0x09d1: 0x30ab
Address 0x09d2: 0x30bb
Address 0x09d3: 0x6a17
Address 0x09d4: 0x6a1b
Address 0x09d5: 0x0000
Address 0x09d6: 0x3193
Address 0x09d7: 0x31a3
Address 0x09d8: 0x6a1f
Address 0x09d9: 0x6a23
Address 0x09da: 0x0000
Address 0x09db: 0x322f
Address 0x09dc: 0x323f
Address 0x09dd: 0x6a27
Address 0x09de: 0x6a2a
Address 0x09df: 0x0000
Address 0x09e0: 0x3332
Address 0x09e1: 0x3342
Address 0x09e2: 0x6a2d
Address 0x09e3: 0x6a30
Address 0x09e4: 0x0000
Address 0x09e5: 0x346c
Address 0x09e6: 0x347c
Address 0x09e7: 0x6a33
Address 0x09e8: 0x6a36
Address 0x09e9: 0x0000
Address 0x09ea: 0x357e
Address 0x09eb: 0x358c
Address 0x09ec: 0x6a39
Address 0x09ed: 0x6a3c
Address 0x09ee: 0x0000
Address 0x09ef: 0x3675
Address 0x09f0: 0x3683
Address 0x09f1: 0x6a3f
Address 0x09f2: 0x6a42
Address 0x09f3: 0x0000
Address 0x09f4: 0x370a
Address 0x09f5: 0x3718
Address 0x09f6: 0x6a45
Address 0x09f7: 0x6a49
Address 0x09f8: 0x0000
Address 0x09f9: 0x386c
Address 0x09fa: 0x3881
Address 0x09fb: 0x6a4d
Address 0x09fc: 0x6a4f
Address 0x09fd: 0x0000
Address 0x09fe: 0x392a
Address 0x09ff: 0x3938
Address 0x0a00: 0x6a51
Address 0x0a01: 0x6a54
Address 0x0a02: 0x1203
Address 0x0a03: 0x39ad
Address 0x0a04: 0x39b8
Address 0x0a05: 0x6a57
Address 0x0a06: 0x6a5a
Address 0x0a07: 0x0f76
Address 0x0a08: 0x3a44
Address 0x0a09: 0x3a4f
Address 0x0a0a: 0x6a5d
Address 0x0a0b: 0x6a61
Address 0x0a0c: 0x0f87
Address 0x0a0d: 0x3ae2
Address 0x0a0e: 0x3aed
Address 0x0a0f: 0x6a65
Address 0x0a10: 0x6a69
Address 0x0a11: 0x0f98
Address 0x0a12: 0x3b7e
Address 0x0a13: 0x3b89
Address 0x0a14: 0x6a6d
Address 0x0a15: 0x6a71
Address 0x0a16: 0x0fa9
Address 0x0a17: 0x3c91
Address 0x0a18: 0x3c9c
Address 0x0a19: 0x6a75
Address 0x0a1a: 0x6a79
Address 0x0a1b: 0x0fbc
Address 0x0a1c: 0x3d30
Address 0x0a1d: 0x3d3b
Address 0x0a1e: 0x6a7d
Address 0x0a1f: 0x6a82
Address 0x0a20: 0x0fcd
Address 0x0a21: 0x3dd2
Address 0x0a22: 0x3ddd
Address 0x0a23: 0x6a87
Address 0x0a24: 0x6a8c
Address 0x0a25: 0x0fde
Address 0x0a26: 0x3e77
Address 0x0a27: 0x3e82
Address 0x0a28: 0x6a91
Address 0x0a29: 0x6a95
Address 0x0a2a: 0x0fef
Address 0x0a2b: 0x3f14
Address 0x0a2c: 0x3f1f
Address 0x0a2d: 0x6a99
Address 0x0a2e: 0x6a9d
Address 0x0a2f: 0x1000
Address 0x0a30: 0x3fb1
Address 0x0a31: 0x3fbc
Address 0x0a32: 0x6aa1
Address 0x0a33: 0x6aa6
Address 0x0a34: 0x1011
Address 0x0a35: 0x4055
Address 0x0a36: 0x4060
Address 0x0a37: 0x6aab
Address 0x0a38: 0x6ab0
Address 0x0a39: 0x1022
Address 0x0a3a: 0x40f7
Address 0x0a3b: 0x4102
Address 0x0a3c: 0x6ab5
Address 0x0a3d: 0x6ab9
Address 0x0a3e: 0x1033
Address 0x0a3f: 0x4197
Address 0x0a40: 0x41a9
Address 0x0a41: 0x6abd
Address 0x0a42: 0x6ac1
Address 0x0a43: 0x1044
Address 0x0a44: 0x424b
Address 0x0a45: 0x4256
Address 0x0a46: 0x6ac5
Address 0x0a47: 0x6ac9
Address 0x0a48: 0x1047
Address 0x0a49: 0x42e7
Address 0x0a4a: 0x42f2
Address 0x0a4b: 0x6acd
Address 0x0a4c: 0x6ad1
Address 0x0a4d: 0x1058
Address 0x0a4e: 0x4385
Address 0x0a4f: 0x4390
Address 0x0a50: 0x6ad5
Address 0x0a51: 0x6ad8
Address 0x0a52: 0x1069
Address 0x0a53: 0x441c
Address 0x0a54: 0x4422
Address 0x0a55: 0x6adb
Address 0x0a56: 0x6add
Address 0x0a57: 0x1252
Address 0x0a58: 0x44fd
Address 0x0a59: 0x451d
Address 0x0a5a: 0x6adf
Address 0x0a5b: 0x6ae2
Address 0x0a5c: 0x0000
Address 0x0a5d: 0x458e
Address 0x0a5e: 0x45ae
Address 0x0a5f: 0x6ae5
Address 0x0a60: 0x6ae8
Address 0x0a61: 0x0000
Address 0x0a62: 0x461d
Address 0x0a63: 0x462f
Address 0x0a64: 0x6aeb
Address 0x0a65: 0x6aef
Address 0x0a66: 0x0000
Address 0x0a67: 0x4687
Address 0x0a68: 0x468d
Address 0x0a69: 0x6af3
Address 0x0a6a: 0x6af4
Address 0x0a6b: 0x0e75
Address 0x0a6c: 0x468e
Address 0x0a6d: 0x4695
Address 0x0a6e: 0x090d
Address 0x0a6f: 0x1270
Address 0x0a70: 0x471e
Address 0x0a71: 0x472c
Address 0x0a72: 0x0935
Address 0x0a73: 0x0000
Address 0x0a74: 0x47a8
Address 0x0a75: 0x47b0
Address 0x0a76: 0x7fff
Address 0x0a77: 0x1315
Address 0x0a78: 0x4824
Address 0x0a79: 0x4830
Address 0x0a7a: 0x7fff
Address 0x0a7b: 0x1343
Address 0x0a7c: 0x4888
Address 0x0a7d: 0x488c
Address 0x0a7e: 0x0971
Address 0x0a7f: 0x12bf
Address 0x0a80: 0x48ba
Address 0x0a81: 0x48c3
Address 0x0a82: 0x0994
Address 0x0a83: 0x14f0
Address 0x0a84: 0x4903
Address 0x0a85: 0x4911
Address 0x0a86: 0x09a9
Address 0x0a87: 0x1501
Address 0x0a88: 0x4951
Address 0x0a89: 0x495c
Address 0x0a8a: 0x09b3
Address 0x0a8b: 0x1512
Address 0x0a8c: 0x49a4
Address 0x0a8d: 0x49b1
Address 0x0a8e: 0x09a4
Address 0x0a8f: 0x1523
Address 0x0a90: 0x4a09
Address 0x0a91: 0x4a13
Address 0x0a92: 0x09ae
Address 0x0a93: 0x1534
Address 0x0a94: 0x4a55
Address 0x0a95: 0x4a60
Address 0x0a96: 0x099f
Address 0x0a97: 0x1545
Address 0x0a98: 0x4aa9
Address 0x0a99: 0x4ab7
Address 0x0a9a: 0x09b8
Address 0x0a9b: 0x0000
Address 0x0a9c: 0x4af8
Address 0x0a9d: 0x4afc
Address 0x0a9e: 0x0a3f
Address 0x0a9f: 0x0000
Address 0x0aa0: 0x4b3a
Address 0x0aa1: 0x4b41
Address 0x0aa2: 0x0a53
Address 0x0aa3: 0x1659
Address 0x0aa4: 0x4bb8
Address 0x0aa5: 0x4bc5
Address 0x0aa6: 0x09b8
Address 0x0aa7: 0x0000
Address 0x0aa8: 0x564d
Address 0x0aa9: 0x5655
Address 0x0aaa: 0x09f9
Address 0x0aab: 0x0000
Address 0x0aac: 0x090d
Address 0x0aad: 0x0000
Address 0x0aae: 0x0002
Address 0x0aaf: 0x8000
Address 0x0ab0: 0x0002
Address 0x0ab1: 0x8001
Address 0x0ab2: 0x0002
Address 0x0ab3: 0x8002
Address 0x0ab4: 0x0002
Address 0x0ab5: 0x8003
Address 0x0ab6: 0x000f
Address 0x0ab7: 0x8001
Address 0x0ab8: 0x0aac
Address 0x0ab9: 0x000f
Address 0x0aba: 0x8000
Address 0x0abb: 0x0aad
Address 0x0abc: 0x0004
Address 0x0abd: 0x8000
Address 0x0abe: 0x8000
Address 0x0abf: 0x8001
Address 0x0ac0: 0x0007
Address 0x0ac1: 0x8000
Address 0x0ac2: 0x0ad2
Address 0x0ac3: 0x000f
Address 0x0ac4: 0x8000
Address 0x0ac5: 0x0aac
Address 0x0ac6: 0x0009
Address 0x0ac7: 0x8000
Address 0x0ac8: 0x8000
Address 0x0ac9: 0x0004
Address 0x0aca: 0x000f
Address 0x0acb: 0x8000
Address 0x0acc: 0x8000
Address 0x0acd: 0x0008
Address 0x0ace: 0x8000
Address 0x0acf: 0x0ad2
Address 0x0ad0: 0x0011
Address 0x0ad1: 0x8000
Address 0x0ad2: 0x000f
Address 0x0ad3: 0x8001
Address 0x0ad4: 0x0aac
Address 0x0ad5: 0x000f
Address 0x0ad6: 0x8000
Address 0x0ad7: 0x0aad
Address 0x0ad8: 0x0004
Address 0x0ad9: 0x8000
Address 0x0ada: 0x8000
Address 0x0adb: 0x8001
Address 0x0adc: 0x0007
Address 0x0add: 0x8000
Address 0x0ade: 0x0ae7
Address 0x0adf: 0x0001
Address 0x0ae0: 0x8000
Address 0x0ae1: 0x6576
Address 0x0ae2: 0x0010
Address 0x0ae3: 0x8000
Address 0x0ae4: 0x0000
Address 0x0ae5: 0x0011
Address 0x0ae6: 0x0b94
Address 0x0ae7: 0x0010
Address 0x0ae8: 0x0aad
Address 0x0ae9: 0x8001
Address 0x0aea: 0x0002
Address 0x0aeb: 0x8000
Address 0x0aec: 0x0002
Address 0x0aed: 0x8001
Address 0x0aee: 0x0002
Address 0x0aef: 0x8002
Address 0x0af0: 0x0001
Address 0x0af1: 0x8000
Address 0x0af2: 0x6b16
Address 0x0af3: 0x0001
Address 0x0af4: 0x8001
Address 0x0af5: 0x05fb
Address 0x0af6: 0x0009
Address 0x0af7: 0x8002
Address 0x0af8: 0x09bf
Address 0x0af9: 0x2ba6
Address 0x0afa: 0x0011
Address 0x0afb: 0x05b2
Address 0x0afc: 0x0003
Address 0x0afd: 0x8002
Address 0x0afe: 0x0003
Address 0x0aff: 0x8001
Address 0x0b00: 0x0003
Address 0x0b01: 0x8000
Address 0x0b02: 0x0001
Address 0x0b03: 0x8000
Address 0x0b04: 0x0020
Address 0x0b05: 0x0001
Address 0x0b06: 0x8001
Address 0x0b07: 0x6576
Address 0x0b08: 0x0011
Address 0x0b09: 0x06e7
Address 0x0b0a: 0x0013
Address 0x0b0b: 0x000a
Address 0x0b0c: 0x0013
Address 0x0b0d: 0x000a
Address 0x0b0e: 0x0001
Address 0x0b0f: 0x8000
Address 0x0b10: 0x6576
Address 0x0b11: 0x0001
Address 0x0b12: 0x8001
Address 0x0b13: 0x0020
Address 0x0b14: 0x0011
Address 0x0b15: 0x0623
Address 0x0b16: 0x0004
Address 0x0b17: 0x8001
Address 0x0b18: 0x8000
Address 0x0b19: 0x7fff
Address 0x0b1a: 0x0008
Address 0x0b1b: 0x8001
Address 0x0b1c: 0x0b20
Address 0x0b1d: 0x000f
Address 0x0b1e: 0x8000
Address 0x0b1f: 0x6576
Address 0x0b20: 0x0001
Address 0x0b21: 0x8002
Address 0x0b22: 0x8000
Address 0x0b23: 0x000f
Address 0x0b24: 0x8001
Address 0x0b25: 0x6576
Address 0x0b26: 0x0002
Address 0x0b27: 0x8001
Address 0x0b28: 0x0010
Address 0x0b29: 0x6576
Address 0x0b2a: 0x8002
Address 0x0b2b: 0x0001
Address 0x0b2c: 0x8000
Address 0x0b2d: 0x6b06
Address 0x0b2e: 0x0001
Address 0x0b2f: 0x8001
Address 0x0b30: 0x6576
Address 0x0b31: 0x0011
Address 0x0b32: 0x0634
Address 0x0b33: 0x0003
Address 0x0b34: 0x8001
Address 0x0b35: 0x0010
Address 0x0b36: 0x6576
Address 0x0b37: 0x8001
Address 0x0b38: 0x0004
Address 0x0b39: 0x8001
Address 0x0b3a: 0x8000
Address 0x0b3b: 0x7fff
Address 0x0b3c: 0x0008
Address 0x0b3d: 0x8001
Address 0x0b3e: 0x0b45
Address 0x0b3f: 0x0001
Address 0x0b40: 0x8000
Address 0x0b41: 0x0000
Address 0x0b42: 0x0001
Address 0x0b43: 0x8002
Address 0x0b44: 0x0000
Address 0x0b45: 0x0009
Address 0x0b46: 0x8001
Address 0x0b47: 0x6b0e
Address 0x0b48: 0x0001
Address 0x0b49: 0x0009
Address 0x0b4a: 0x8001
Address 0x0b4b: 0x8001
Address 0x0b4c: 0x8000
Address 0x0b4d: 0x000f
Address 0x0b4e: 0x8001
Address 0x0b4f: 0x8001
Address 0x0b50: 0x000f
Address 0x0b51: 0x8003
Address 0x0b52: 0x6576
Address 0x0b53: 0x0004
Address 0x0b54: 0x8003
Address 0x0b55: 0x8003
Address 0x0b56: 0x8002
Address 0x0b57: 0x0007
Address 0x0b58: 0x8003
Address 0x0b59: 0x0b80
Address 0x0b5a: 0x000a
Address 0x0b5b: 0x8000
Address 0x0b5c: 0x8002
Address 0x0b5d: 0x7fff
Address 0x0b5e: 0x000f
Address 0x0b5f: 0x8003
Address 0x0b60: 0x6576
Address 0x0b61: 0x0009
Address 0x0b62: 0x8003
Address 0x0b63: 0x8000
Address 0x0b64: 0x8003
Address 0x0b65: 0x0008
Address 0x0b66: 0x8002
Address 0x0b67: 0x0b6c
Address 0x0b68: 0x0009
Address 0x0b69: 0x8003
Address 0x0b6a: 0x8003
Address 0x0b6b: 0x7fff
Address 0x0b6c: 0x000b
Address 0x0b6d: 0x8003
Address 0x0b6e: 0x8003
Address 0x0b6f: 0x0020
Address 0x0b70: 0x0009
Address 0x0b71: 0x8000
Address 0x0b72: 0x6576
Address 0x0b73: 0x8002
Address 0x0b74: 0x0008
Address 0x0b75: 0x8002
Address 0x0b76: 0x0b7b
Address 0x0b77: 0x0009
Address 0x0b78: 0x8000
Address 0x0b79: 0x8000
Address 0x0b7a: 0x0001
Address 0x0b7b: 0x0010
Address 0x0b7c: 0x8000
Address 0x0b7d: 0x8003
Address 0x0b7e: 0x0006
Address 0x0b7f: 0x0b86
Address 0x0b80: 0x0001
Address 0x0b81: 0x8000
Address 0x0b82: 0x6576
Address 0x0b83: 0x0010
Address 0x0b84: 0x8000
Address 0x0b85: 0x0000
Address 0x0b86: 0x0011
Address 0x0b87: 0x8001
Address 0x0b88: 0x0007
Address 0x0b89: 0x8001
Address 0x0b8a: 0x0ab6
Address 0x0b8b: 0x0003
Address 0x0b8c: 0x8003
Address 0x0b8d: 0x0003
Address 0x0b8e: 0x8002
Address 0x0b8f: 0x0003
Address 0x0b90: 0x8001
Address 0x0b91: 0x0003
Address 0x0b92: 0x8000
Address 0x0b93: 0x0012
Address 0x0b94: 0x0002
Address 0x0b95: 0x8000
Address 0x0b96: 0x0002
Address 0x0b97: 0x8001
Address 0x0b98: 0x0002
Address 0x0b99: 0x8002
Address 0x0b9a: 0x000f
Address 0x0b9b: 0x8001
Address 0x0b9c: 0x8000
Address 0x0b9d: 0x0008
Address 0x0b9e: 0x8001
Address 0x0b9f: 0x0bd8
Address 0x0ba0: 0x0011
Address 0x0ba1: 0x1721
Address 0x0ba2: 0x0008
Address 0x0ba3: 0x8000
Address 0x0ba4: 0x0bbe
Address 0x0ba5: 0x0002
Address 0x0ba6: 0x8000
Address 0x0ba7: 0x0011
Address 0x0ba8: 0x1766
Address 0x0ba9: 0x0001
Address 0x0baa: 0x8001
Address 0x0bab: 0x8000
Address 0x0bac: 0x0003
Address 0x0bad: 0x8000
Address 0x0bae: 0x0008
Address 0x0baf: 0x8001
Address 0x0bb0: 0x0bbe
Address 0x0bb1: 0x0009
Address 0x0bb2: 0x8001
Address 0x0bb3: 0x8000
Address 0x0bb4: 0x0001
Address 0x0bb5: 0x000f
Address 0x0bb6: 0x8000
Address 0x0bb7: 0x8001
Address 0x0bb8: 0x0011
Address 0x0bb9: 0x05ee
Address 0x0bba: 0x0013
Address 0x0bbb: 0x000a
Address 0x0bbc: 0x0006
Address 0x0bbd: 0x0ca6
Address 0x0bbe: 0x0002
Address 0x0bbf: 0x8000
Address 0x0bc0: 0x0002
Address 0x0bc1: 0x8001
Address 0x0bc2: 0x0002
Address 0x0bc3: 0x8002
Address 0x0bc4: 0x0001
Address 0x0bc5: 0x8000
Address 0x0bc6: 0x6b28
Address 0x0bc7: 0x0001
Address 0x0bc8: 0x8001
Address 0x0bc9: 0x05fb
Address 0x0bca: 0x0009
Address 0x0bcb: 0x8002
Address 0x0bcc: 0x3149
Address 0x0bcd: 0x3230
Address 0x0bce: 0x0011
Address 0x0bcf: 0x05b2
Address 0x0bd0: 0x0003
Address 0x0bd1: 0x8002
Address 0x0bd2: 0x0003
Address 0x0bd3: 0x8001
Address 0x0bd4: 0x0003
Address 0x0bd5: 0x8000
Address 0x0bd6: 0x0006
Address 0x0bd7: 0x0ca6
Address 0x0bd8: 0x000f
Address 0x0bd9: 0x8000
Address 0x0bda: 0x0aac
Address 0x0bdb: 0x0002
Address 0x0bdc: 0x8000
Address 0x0bdd: 0x0013
Address 0x0bde: 0x003d
Address 0x0bdf: 0x0013
Address 0x0be0: 0x003d
Address 0x0be1: 0x0013
Address 0x0be2: 0x0020
Address 0x0be3: 0x0009
Address 0x0be4: 0x8000
Address 0x0be5: 0x8000
Address 0x0be6: 0x0000
Address 0x0be7: 0x000f
Address 0x0be8: 0x8000
Address 0x0be9: 0x8000
Address 0x0bea: 0x0011
Address 0x0beb: 0x05ee
Address 0x0bec: 0x0013
Address 0x0bed: 0x0020
Address 0x0bee: 0x0013
Address 0x0bef: 0x003d
Address 0x0bf0: 0x0013
Address 0x0bf1: 0x003d
Address 0x0bf2: 0x0013
Address 0x0bf3: 0x000a
Address 0x0bf4: 0x0003
Address 0x0bf5: 0x8000
Address 0x0bf6: 0x0002
Address 0x0bf7: 0x8000
Address 0x0bf8: 0x0009
Address 0x0bf9: 0x8000
Address 0x0bfa: 0x8000
Address 0x0bfb: 0x0001
Address 0x0bfc: 0x000f
Address 0x0bfd: 0x8000
Address 0x0bfe: 0x8000
Address 0x0bff: 0x000f
Address 0x0c00: 0x8001
Address 0x0c01: 0x8000
Address 0x0c02: 0x0004
Address 0x0c03: 0x8001
Address 0x0c04: 0x8001
Address 0x0c05: 0x0002
Address 0x0c06: 0x0008
Address 0x0c07: 0x8001
Address 0x0c08: 0x0c20
Address 0x0c09: 0x0002
Address 0x0c0a: 0x8000
Address 0x0c0b: 0x0001
Address 0x0c0c: 0x8000
Address 0x0c0d: 0x0a78
Address 0x0c0e: 0x0011
Address 0x0c0f: 0x1766
Address 0x0c10: 0x0001
Address 0x0c11: 0x8001
Address 0x0c12: 0x8000
Address 0x0c13: 0x0003
Address 0x0c14: 0x8000
Address 0x0c15: 0x0009
Address 0x0c16: 0x8000
Address 0x0c17: 0x8000
Address 0x0c18: 0x0001
Address 0x0c19: 0x0009
Address 0x0c1a: 0x8000
Address 0x0c1b: 0x8000
Address 0x0c1c: 0x8001
Address 0x0c1d: 0x000f
Address 0x0c1e: 0x8000
Address 0x0c1f: 0x8000
Address 0x0c20: 0x0011
Address 0x0c21: 0x05ee
Address 0x0c22: 0x0013
Address 0x0c23: 0x000a
Address 0x0c24: 0x0003
Address 0x0c25: 0x8000
Address 0x0c26: 0x0002
Address 0x0c27: 0x8000
Address 0x0c28: 0x0011
Address 0x0c29: 0x16bf
Address 0x0c2a: 0x0008
Address 0x0c2b: 0x8000
Address 0x0c2c: 0x0c4a
Address 0x0c2d: 0x0002
Address 0x0c2e: 0x8000
Address 0x0c2f: 0x0002
Address 0x0c30: 0x8001
Address 0x0c31: 0x0002
Address 0x0c32: 0x8002
Address 0x0c33: 0x0001
Address 0x0c34: 0x8000
Address 0x0c35: 0x6b3f
Address 0x0c36: 0x0001
Address 0x0c37: 0x8001
Address 0x0c38: 0x05fb
Address 0x0c39: 0x0009
Address 0x0c3a: 0x8002
Address 0x0c3b: 0x080c
Address 0x0c3c: 0x03d9
Address 0x0c3d: 0x0011
Address 0x0c3e: 0x05b2
Address 0x0c3f: 0x0003
Address 0x0c40: 0x8002
Address 0x0c41: 0x0003
Address 0x0c42: 0x8001
Address 0x0c43: 0x0003
Address 0x0c44: 0x8000
Address 0x0c45: 0x000f
Address 0x0c46: 0x8002
Address 0x0c47: 0x0aac
Address 0x0c48: 0x0011
Address 0x0c49: 0x16f4
Address 0x0c4a: 0x0003
Address 0x0c4b: 0x8000
Address 0x0c4c: 0x0002
Address 0x0c4d: 0x8000
Address 0x0c4e: 0x0009
Address 0x0c4f: 0x8000
Address 0x0c50: 0x8000
Address 0x0c51: 0x0002
Address 0x0c52: 0x000f
Address 0x0c53: 0x8000
Address 0x0c54: 0x8000
Address 0x0c55: 0x000f
Address 0x0c56: 0x8000
Address 0x0c57: 0x8000
Address 0x0c58: 0x0004
Address 0x0c59: 0x8002
Address 0x0c5a: 0x8000
Address 0x0c5b: 0x0001
Address 0x0c5c: 0x0013
Address 0x0c5d: 0x000a
Address 0x0c5e: 0x0013
Address 0x0c5f: 0x0054
Address 0x0c60: 0x0013
Address 0x0c61: 0x0068
Address 0x0c62: 0x0013
Address 0x0c63: 0x0065
Address 0x0c64: 0x0013
Address 0x0c65: 0x0072
Address 0x0c66: 0x0013
Address 0x0c67: 0x0065
Address 0x0c68: 0x0013
Address 0x0c69: 0x0020
Address 0x0c6a: 0x0007
Address 0x0c6b: 0x8002
Address 0x0c6c: 0x0c75
Address 0x0c6d: 0x0013
Address 0x0c6e: 0x0061
Address 0x0c6f: 0x0013
Address 0x0c70: 0x0072
Address 0x0c71: 0x0013
Address 0x0c72: 0x0065
Address 0x0c73: 0x0006
Address 0x0c74: 0x0c79
Address 0x0c75: 0x0013
Address 0x0c76: 0x0069
Address 0x0c77: 0x0013
Address 0x0c78: 0x0073
Address 0x0c79: 0x0013
Address 0x0c7a: 0x0020
Address 0x0c7b: 0x0011
Address 0x0c7c: 0x07d1
Address 0x0c7d: 0x0013
Address 0x0c7e: 0x0020
Address 0x0c7f: 0x0013
Address 0x0c80: 0x0065
Address 0x0c81: 0x0013
Address 0x0c82: 0x0078
Address 0x0c83: 0x0013
Address 0x0c84: 0x0069
Address 0x0c85: 0x0013
Address 0x0c86: 0x0074
Address 0x0c87: 0x0004
Address 0x0c88: 0x8002
Address 0x0c89: 0x8000
Address 0x0c8a: 0x0001
Address 0x0c8b: 0x0007
Address 0x0c8c: 0x8002
Address 0x0c8d: 0x0c90
Address 0x0c8e: 0x0013
Address 0x0c8f: 0x0073
Address 0x0c90: 0x0013
Address 0x0c91: 0x003a
Address 0x0c92: 0x0013
Address 0x0c93: 0x000a
Address 0x0c94: 0x0003
Address 0x0c95: 0x8000
Address 0x0c96: 0x0002
Address 0x0c97: 0x8000
Address 0x0c98: 0x0009
Address 0x0c99: 0x8000
Address 0x0c9a: 0x8000
Address 0x0c9b: 0x0002
Address 0x0c9c: 0x000f
Address 0x0c9d: 0x8000
Address 0x0c9e: 0x8000
Address 0x0c9f: 0x0001
Address 0x0ca0: 0x8001
Address 0x0ca1: 0x16b6
Address 0x0ca2: 0x0011
Address 0x0ca3: 0x05b2
Address 0x0ca4: 0x0003
Address 0x0ca5: 0x8000
Address 0x0ca6: 0x0003
Address 0x0ca7: 0x8002
Address 0x0ca8: 0x0003
Address 0x0ca9: 0x8001
Address 0x0caa: 0x0003
Address 0x0cab: 0x8000
Address 0x0cac: 0x0012
Address 0x0cad: 0x0002
Address 0x0cae: 0x8000
Address 0x0caf: 0x0002
Address 0x0cb0: 0x8001
Address 0x0cb1: 0x0002
Address 0x0cb2: 0x8002
Address 0x0cb3: 0x0001
Address 0x0cb4: 0x8001
Address 0x0cb5: 0x8000
Address 0x0cb6: 0x000f
Address 0x0cb7: 0x8000
Address 0x0cb8: 0x0aac
Address 0x0cb9: 0x0009
Address 0x0cba: 0x8000
Address 0x0cbb: 0x8000
Address 0x0cbc: 0x0002
Address 0x0cbd: 0x000f
Address 0x0cbe: 0x8000
Address 0x0cbf: 0x8000
Address 0x0cc0: 0x0011
Address 0x0cc1: 0x0634
Address 0x0cc2: 0x0004
Address 0x0cc3: 0x8002
Address 0x0cc4: 0x8000
Address 0x0cc5: 0x7fff
Address 0x0cc6: 0x0007
Address 0x0cc7: 0x8002
Address 0x0cc8: 0x0ce6
Address 0x0cc9: 0x000f
Address 0x0cca: 0x8002
Address 0x0ccb: 0x0aac
Address 0x0ccc: 0x0009
Address 0x0ccd: 0x8002
Address 0x0cce: 0x8002
Address 0x0ccf: 0x0003
Address 0x0cd0: 0x000f
Address 0x0cd1: 0x8002
Address 0x0cd2: 0x8002
Address 0x0cd3: 0x0009
Address 0x0cd4: 0x8002
Address 0x0cd5: 0x8002
Address 0x0cd6: 0x0001
Address 0x0cd7: 0x0009
Address 0x0cd8: 0x8002
Address 0x0cd9: 0x8002
Address 0x0cda: 0x8000
Address 0x0cdb: 0x000f
Address 0x0cdc: 0x8002
Address 0x0cdd: 0x8002
Address 0x0cde: 0x0010
Address 0x0cdf: 0x0aac
Address 0x0ce0: 0x8002
Address 0x0ce1: 0x0010
Address 0x0ce2: 0x0aad
Address 0x0ce3: 0x0000
Address 0x0ce4: 0x0006
Address 0x0ce5: 0x0cfe
Address 0x0ce6: 0x0002
Address 0x0ce7: 0x8000
Address 0x0ce8: 0x0002
Address 0x0ce9: 0x8001
Address 0x0cea: 0x0002
Address 0x0ceb: 0x8002
Address 0x0cec: 0x0001
Address 0x0ced: 0x8000
Address 0x0cee: 0x6b5a
Address 0x0cef: 0x0001
Address 0x0cf0: 0x8001
Address 0x0cf1: 0x05fb
Address 0x0cf2: 0x0009
Address 0x0cf3: 0x8002
Address 0x0cf4: 0x0177
Address 0x0cf5: 0x3983
Address 0x0cf6: 0x0011
Address 0x0cf7: 0x05b2
Address 0x0cf8: 0x0003
Address 0x0cf9: 0x8002
Address 0x0cfa: 0x0003
Address 0x0cfb: 0x8001
Address 0x0cfc: 0x0003
Address 0x0cfd: 0x8000
Address 0x0cfe: 0x0003
Address 0x0cff: 0x8002
Address 0x0d00: 0x0003
Address 0x0d01: 0x8001
Address 0x0d02: 0x0003
Address 0x0d03: 0x8000
Address 0x0d04: 0x0012
Address 0x0d05: 0x0002
Address 0x0d06: 0x8000
Address 0x0d07: 0x0002
Address 0x0d08: 0x8000
Address 0x0d09: 0x0002
Address 0x0d0a: 0x8001
Address 0x0d0b: 0x0002
Address 0x0d0c: 0x8002
Address 0x0d0d: 0x0001
Address 0x0d0e: 0x8000
Address 0x0d0f: 0x6b8c
Address 0x0d10: 0x0001
Address 0x0d11: 0x8001
Address 0x0d12: 0x05fb
Address 0x0d13: 0x0009
Address 0x0d14: 0x8002
Address 0x0d15: 0x6d80
Address 0x0d16: 0x116c
Address 0x0d17: 0x0011
Address 0x0d18: 0x05b2
Address 0x0d19: 0x0003
Address 0x0d1a: 0x8002
Address 0x0d1b: 0x0003
Address 0x0d1c: 0x8001
Address 0x0d1d: 0x0003
Address 0x0d1e: 0x8000
Address 0x0d1f: 0x0003
Address 0x0d20: 0x8000
Address 0x0d21: 0x0012
Address 0x0d22: 0x0002
Address 0x0d23: 0x8000
Address 0x0d24: 0x0002
Address 0x0d25: 0x8002
Address 0x0d26: 0x0002
Address 0x0d27: 0x8000
Address 0x0d28: 0x0002
Address 0x0d29: 0x8001
Address 0x0d2a: 0x0002
Address 0x0d2b: 0x8002
Address 0x0d2c: 0x0001
Address 0x0d2d: 0x8000
Address 0x0d2e: 0x6d85
Address 0x0d2f: 0x0001
Address 0x0d30: 0x8001
Address 0x0d31: 0x05fb
Address 0x0d32: 0x0009
Address 0x0d33: 0x8002
Address 0x0d34: 0x2c0f
Address 0x0d35: 0x1eeb
Address 0x0d36: 0x0011
Address 0x0d37: 0x05b2
Address 0x0d38: 0x0003
Address 0x0d39: 0x8002
Address 0x0d3a: 0x0003
Address 0x0d3b: 0x8001
Address 0x0d3c: 0x0003
Address 0x0d3d: 0x8000
Address 0x0d3e: 0x0001
Address 0x0d3f: 0x8002
Address 0x0d40: 0x0000
Address 0x0d41: 0x0011
Address 0x0d42: 0x16f4
Address 0x0d43: 0x0003
Address 0x0d44: 0x8002
Address 0x0d45: 0x0003
Address 0x0d46: 0x8000
Address 0x0d47: 0x0012
Address 0x0d48: 0x0002
Address 0x0d49: 0x8000
Address 0x0d4a: 0x0002
Address 0x0d4b: 0x8001
Address 0x0d4c: 0x0002
Address 0x0d4d: 0x8002
Address 0x0d4e: 0x0011
Address 0x0d4f: 0x1721
Address 0x0d50: 0x0008
Address 0x0d51: 0x8000
Address 0x0d52: 0x0d81
Address 0x0d53: 0x0009
Address 0x0d54: 0x8001
Address 0x0d55: 0x8000
Address 0x0d56: 0x0002
Address 0x0d57: 0x000f
Address 0x0d58: 0x8000
Address 0x0d59: 0x8001
Address 0x0d5a: 0x000f
Address 0x0d5b: 0x8002
Address 0x0d5c: 0x0aac
Address 0x0d5d: 0x0004
Address 0x0d5e: 0x8002
Address 0x0d5f: 0x8000
Address 0x0d60: 0x8002
Address 0x0d61: 0x0008
Address 0x0d62: 0x8002
Address 0x0d63: 0x0d81
Address 0x0d64: 0x0010
Address 0x0d65: 0x8001
Address 0x0d66: 0x0000
Address 0x0d67: 0x0002
Address 0x0d68: 0x8000
Address 0x0d69: 0x0002
Address 0x0d6a: 0x8001
Address 0x0d6b: 0x0002
Address 0x0d6c: 0x8002
Address 0x0d6d: 0x0001
Address 0x0d6e: 0x8000
Address 0x0d6f: 0x6d96
Address 0x0d70: 0x0001
Address 0x0d71: 0x8001
Address 0x0d72: 0x05fb
Address 0x0d73: 0x0009
Address 0x0d74: 0x8002
Address 0x0d75: 0x005a
Address 0x0d76: 0x0011
Address 0x0d77: 0x0011
Address 0x0d78: 0x05b2
Address 0x0d79: 0x0003
Address 0x0d7a: 0x8002
Address 0x0d7b: 0x0003
Address 0x0d7c: 0x8001
Address 0x0d7d: 0x0003
Address 0x0d7e: 0x8000
Address 0x0d7f: 0x0006
Address 0x0d80: 0x0d99
Address 0x0d81: 0x0002
Address 0x0d82: 0x8000
Address 0x0d83: 0x0002
Address 0x0d84: 0x8001
Address 0x0d85: 0x0002
Address 0x0d86: 0x8002
Address 0x0d87: 0x0001
Address 0x0d88: 0x8000
Address 0x0d89: 0x6d9e
Address 0x0d8a: 0x0001
Address 0x0d8b: 0x8001
Address 0x0d8c: 0x05fb
Address 0x0d8d: 0x0009
Address 0x0d8e: 0x8002
Address 0x0d8f: 0x7a0b
Address 0x0d90: 0x015a
Address 0x0d91: 0x0011
Address 0x0d92: 0x05b2
Address 0x0d93: 0x0003
Address 0x0d94: 0x8002
Address 0x0d95: 0x0003
Address 0x0d96: 0x8001
Address 0x0d97: 0x0003
Address 0x0d98: 0x8000
Address 0x0d99: 0x0003
Address 0x0d9a: 0x8002
Address 0x0d9b: 0x0003
Address 0x0d9c: 0x8001
Address 0x0d9d: 0x0003
Address 0x0d9e: 0x8000
Address 0x0d9f: 0x0012
Address 0x0da0: 0x0002
Address 0x0da1: 0x8000
Address 0x0da2: 0x0002
Address 0x0da3: 0x8001
Address 0x0da4: 0x0011
Address 0x0da5: 0x1721
Address 0x0da6: 0x0008
Address 0x0da7: 0x8000
Address 0x0da8: 0x0dd3
Address 0x0da9: 0x0009
Address 0x0daa: 0x8001
Address 0x0dab: 0x8000
Address 0x0dac: 0x0002
Address 0x0dad: 0x000f
Address 0x0dae: 0x8000
Address 0x0daf: 0x8001
Address 0x0db0: 0x0007
Address 0x0db1: 0x8000
Address 0x0db2: 0x0dd3
Address 0x0db3: 0x000f
Address 0x0db4: 0x8000
Address 0x0db5: 0x0aac
Address 0x0db6: 0x0010
Address 0x0db7: 0x8001
Address 0x0db8: 0x8000
Address 0x0db9: 0x0002
Address 0x0dba: 0x8000
Address 0x0dbb: 0x0002
Address 0x0dbc: 0x8001
Address 0x0dbd: 0x0002
Address 0x0dbe: 0x8002
Address 0x0dbf: 0x0001
Address 0x0dc0: 0x8000
Address 0x0dc1: 0x6dba
Address 0x0dc2: 0x0001
Address 0x0dc3: 0x8001
Address 0x0dc4: 0x05fb
Address 0x0dc5: 0x0009
Address 0x0dc6: 0x8002
Address 0x0dc7: 0x65d0
Address 0x0dc8: 0x1518
Address 0x0dc9: 0x0011
Address 0x0dca: 0x05b2
Address 0x0dcb: 0x0003
Address 0x0dcc: 0x8002
Address 0x0dcd: 0x0003
Address 0x0dce: 0x8001
Address 0x0dcf: 0x0003
Address 0x0dd0: 0x8000
Address 0x0dd1: 0x0006
Address 0x0dd2: 0x0deb
Address 0x0dd3: 0x0002
Address 0x0dd4: 0x8000
Address 0x0dd5: 0x0002
Address 0x0dd6: 0x8001
Address 0x0dd7: 0x0002
Address 0x0dd8: 0x8002
Address 0x0dd9: 0x0001
Address 0x0dda: 0x8000
Address 0x0ddb: 0x6dc4
Address 0x0ddc: 0x0001
Address 0x0ddd: 0x8001
Address 0x0dde: 0x05fb
Address 0x0ddf: 0x0009
Address 0x0de0: 0x8002
Address 0x0de1: 0x0356
Address 0x0de2: 0x0310
Address 0x0de3: 0x0011
Address 0x0de4: 0x05b2
Address 0x0de5: 0x0003
Address 0x0de6: 0x8002
Address 0x0de7: 0x0003
Address 0x0de8: 0x8001
Address 0x0de9: 0x0003
Address 0x0dea: 0x8000
Address 0x0deb: 0x0003
Address 0x0dec: 0x8001
Address 0x0ded: 0x0003
Address 0x0dee: 0x8000
Address 0x0def: 0x0012
Address 0x0df0: 0x0002
Address 0x0df1: 0x8000
Address 0x0df2: 0x0002
Address 0x0df3: 0x8001
Address 0x0df4: 0x0011
Address 0x0df5: 0x1721
Address 0x0df6: 0x0008
Address 0x0df7: 0x8000
Address 0x0df8: 0x0e11
Address 0x0df9: 0x0009
Address 0x0dfa: 0x8001
Address 0x0dfb: 0x8000
Address 0x0dfc: 0x0002
Address 0x0dfd: 0x000f
Address 0x0dfe: 0x8001
Address 0x0dff: 0x8001
Address 0x0e00: 0x0007
Address 0x0e01: 0x8001
Address 0x0e02: 0x0e11
Address 0x0e03: 0x0009
Address 0x0e04: 0x8001
Address 0x0e05: 0x8000
Address 0x0e06: 0x0003
Address 0x0e07: 0x000f
Address 0x0e08: 0x8001
Address 0x0e09: 0x8001
Address 0x0e0a: 0x0008
Address 0x0e0b: 0x8001
Address 0x0e0c: 0x0e2b
Address 0x0e0d: 0x0011
Address 0x0e0e: 0x8001
Address 0x0e0f: 0x0006
Address 0x0e10: 0x0e43
Address 0x0e11: 0x0002
Address 0x0e12: 0x8000
Address 0x0e13: 0x0002
Address 0x0e14: 0x8001
Address 0x0e15: 0x0002
Address 0x0e16: 0x8002
Address 0x0e17: 0x0001
Address 0x0e18: 0x8000
Address 0x0e19: 0x6de7
Address 0x0e1a: 0x0001
Address 0x0e1b: 0x8001
Address 0x0e1c: 0x05fb
Address 0x0e1d: 0x0009
Address 0x0e1e: 0x8002
Address 0x0e1f: 0x19c3
Address 0x0e20: 0x1d2d
Address 0x0e21: 0x0011
Address 0x0e22: 0x05b2
Address 0x0e23: 0x0003
Address 0x0e24: 0x8002
Address 0x0e25: 0x0003
Address 0x0e26: 0x8001
Address 0x0e27: 0x0003
Address 0x0e28: 0x8000
Address 0x0e29: 0x0006
Address 0x0e2a: 0x0e43
Address 0x0e2b: 0x0002
Address 0x0e2c: 0x8000
Address 0x0e2d: 0x0002
Address 0x0e2e: 0x8001
Address 0x0e2f: 0x0002
Address 0x0e30: 0x8002
Address 0x0e31: 0x0001
Address 0x0e32: 0x8000
Address 0x0e33: 0x6e0a
Address 0x0e34: 0x0001
Address 0x0e35: 0x8001
Address 0x0e36: 0x05fb
Address 0x0e37: 0x0009
Address 0x0e38: 0x8002
Address 0x0e39: 0x34af
Address 0x0e3a: 0x26b9
Address 0x0e3b: 0x0011
Address 0x0e3c: 0x05b2
Address 0x0e3d: 0x0003
Address 0x0e3e: 0x8002
Address 0x0e3f: 0x0003
Address 0x0e40: 0x8001
Address 0x0e41: 0x0003
Address 0x0e42: 0x8000
Address 0x0e43: 0x0003
Address 0x0e44: 0x8001
Address 0x0e45: 0x0003
Address 0x0e46: 0x8000
Address 0x0e47: 0x0012
Address 0x0e48: 0x0002
Address 0x0e49: 0x8000
Address 0x0e4a: 0x0002
Address 0x0e4b: 0x8001
Address 0x0e4c: 0x0002
Address 0x0e4d: 0x8002
Address 0x0e4e: 0x0001
Address 0x0e4f: 0x8000
Address 0x0e50: 0x0a78
Address 0x0e51: 0x0011
Address 0x0e52: 0x1766
Address 0x0e53: 0x0007
Address 0x0e54: 0x8000
Address 0x0e55: 0x0e6e
Address 0x0e56: 0x0009
Address 0x0e57: 0x8000
Address 0x0e58: 0x0a74
Address 0x0e59: 0x0002
Address 0x0e5a: 0x0010
Address 0x0e5b: 0x8000
Address 0x0e5c: 0x7fff
Address 0x0e5d: 0x0009
Address 0x0e5e: 0x8000
Address 0x0e5f: 0x0a78
Address 0x0e60: 0x0002
Address 0x0e61: 0x0010
Address 0x0e62: 0x8000
Address 0x0e63: 0x7fff
Address 0x0e64: 0x0009
Address 0x0e65: 0x8000
Address 0x0e66: 0x0a70
Address 0x0e67: 0x0002
Address 0x0e68: 0x0010
Address 0x0e69: 0x8000
Address 0x0e6a: 0x7fff
Address 0x0e6b: 0x0010
Address 0x0e6c: 0x0aac
Address 0x0e6d: 0x0a58
Address 0x0e6e: 0x0003
Address 0x0e6f: 0x8002
Address 0x0e70: 0x0003
Address 0x0e71: 0x8001
Address 0x0e72: 0x0003
Address 0x0e73: 0x8000
Address 0x0e74: 0x0012
Address 0x0e75: 0x0002
Address 0x0e76: 0x8000
Address 0x0e77: 0x0002
Address 0x0e78: 0x8001
Address 0x0e79: 0x0002
Address 0x0e7a: 0x8002
Address 0x0e7b: 0x0001
Address 0x0e7c: 0x8000
Address 0x0e7d: 0x6e2c
Address 0x0e7e: 0x0001
Address 0x0e7f: 0x8001
Address 0x0e80: 0x05fb
Address 0x0e81: 0x0009
Address 0x0e82: 0x8002
Address 0x0e83: 0x2ac0
Address 0x0e84: 0x2e2b
Address 0x0e85: 0x0011
Address 0x0e86: 0x05b2
Address 0x0e87: 0x0003
Address 0x0e88: 0x8002
Address 0x0e89: 0x0003
Address 0x0e8a: 0x8001
Address 0x0e8b: 0x0003
Address 0x0e8c: 0x8000
Address 0x0e8d: 0x0000
Address 0x0e8e: 0x0000
Address 0x0e8f: 0x0002
Address 0x0e90: 0x8001
Address 0x0e91: 0x000f
Address 0x0e92: 0x8001
Address 0x0e93: 0x0e8e
Address 0x0e94: 0x000d
Address 0x0e95: 0x8001
Address 0x0e96: 0x8001
Address 0x0e97: 0x8000
Address 0x0e98: 0x0010
Address 0x0e99: 0x0e8e
Address 0x0e9a: 0x8001
Address 0x0e9b: 0x0003
Address 0x0e9c: 0x8001
Address 0x0e9d: 0x0012
Address 0x0e9e: 0x0010
Address 0x0e9f: 0x0e8e
Address 0x0ea0: 0x0000
Address 0x0ea1: 0x0012
Address 0x0ea2: 0x0002
Address 0x0ea3: 0x8000
Address 0x0ea4: 0x0001
Address 0x0ea5: 0x8000
Address 0x0ea6: 0x0001
Address 0x0ea7: 0x0011
Address 0x0ea8: 0x0e8f
Address 0x0ea9: 0x0003
Address 0x0eaa: 0x8000
Address 0x0eab: 0x0012
Address 0x0eac: 0x0002
Address 0x0ead: 0x8000
Address 0x0eae: 0x0001
Address 0x0eaf: 0x8000
Address 0x0eb0: 0x0002
Address 0x0eb1: 0x0011
Address 0x0eb2: 0x0e8f
Address 0x0eb3: 0x0003
Address 0x0eb4: 0x8000
Address 0x0eb5: 0x0012
Address 0x0eb6: 0x0002
Address 0x0eb7: 0x8000
Address 0x0eb8: 0x0001
Address 0x0eb9: 0x8000
Address 0x0eba: 0x0004
Address 0x0ebb: 0x0011
Address 0x0ebc: 0x0e8f
Address 0x0ebd: 0x0003
Address 0x0ebe: 0x8000
Address 0x0ebf: 0x0012
Address 0x0ec0: 0x0002
Address 0x0ec1: 0x8000
Address 0x0ec2: 0x0001
Address 0x0ec3: 0x8000
Address 0x0ec4: 0x0008
Address 0x0ec5: 0x0011
Address 0x0ec6: 0x0e8f
Address 0x0ec7: 0x0003
Address 0x0ec8: 0x8000
Address 0x0ec9: 0x0012
Address 0x0eca: 0x0002
Address 0x0ecb: 0x8000
Address 0x0ecc: 0x0001
Address 0x0ecd: 0x8000
Address 0x0ece: 0x0010
Address 0x0ecf: 0x0011
Address 0x0ed0: 0x0e8f
Address 0x0ed1: 0x0003
Address 0x0ed2: 0x8000
Address 0x0ed3: 0x0012
Address 0x0ed4: 0x0002
Address 0x0ed5: 0x8000
Address 0x0ed6: 0x0001
Address 0x0ed7: 0x8000
Address 0x0ed8: 0x0020
Address 0x0ed9: 0x0011
Address 0x0eda: 0x0e8f
Address 0x0edb: 0x0003
Address 0x0edc: 0x8000
Address 0x0edd: 0x0012
Address 0x0ede: 0x0002
Address 0x0edf: 0x8000
Address 0x0ee0: 0x0002
Address 0x0ee1: 0x8001
Address 0x0ee2: 0x0002
Address 0x0ee3: 0x8002
Address 0x0ee4: 0x0002
Address 0x0ee5: 0x8003
Address 0x0ee6: 0x0001
Address 0x0ee7: 0x8000
Address 0x0ee8: 0x0040
Address 0x0ee9: 0x0011
Address 0x0eea: 0x0e8f
Address 0x0eeb: 0x0002
Address 0x0eec: 0x8000
Address 0x0eed: 0x0002
Address 0x0eee: 0x8001
Address 0x0eef: 0x0002
Address 0x0ef0: 0x8002
Address 0x0ef1: 0x0001
Address 0x0ef2: 0x8000
Address 0x0ef3: 0x6e4c
Address 0x0ef4: 0x0001
Address 0x0ef5: 0x8001
Address 0x0ef6: 0x05fb
Address 0x0ef7: 0x0009
Address 0x0ef8: 0x8002
Address 0x0ef9: 0x0ab8
Address 0x0efa: 0x1c28
Address 0x0efb: 0x0011
Address 0x0efc: 0x05b2
Address 0x0efd: 0x0003
Address 0x0efe: 0x8002
Address 0x0eff: 0x0003
Address 0x0f00: 0x8001
Address 0x0f01: 0x0003
Address 0x0f02: 0x8000
Address 0x0f03: 0x000f
Address 0x0f04: 0x8000
Address 0x0f05: 0x0e8e
Address 0x0f06: 0x0001
Address 0x0f07: 0x8001
Address 0x0f08: 0x650a
Address 0x0f09: 0x0001
Address 0x0f0a: 0x8002
Address 0x0f0b: 0x7fff
Address 0x0f0c: 0x0001
Address 0x0f0d: 0x8003
Address 0x0f0e: 0x6e8b
Address 0x0f0f: 0x0011
Address 0x0f10: 0x0731
Address 0x0f11: 0x0002
Address 0x0f12: 0x8000
Address 0x0f13: 0x0002
Address 0x0f14: 0x8001
Address 0x0f15: 0x0002
Address 0x0f16: 0x8002
Address 0x0f17: 0x0001
Address 0x0f18: 0x8000
Address 0x0f19: 0x6e8f
Address 0x0f1a: 0x0001
Address 0x0f1b: 0x8001
Address 0x0f1c: 0x05fb
Address 0x0f1d: 0x0009
Address 0x0f1e: 0x8002
Address 0x0f1f: 0x3a8b
Address 0x0f20: 0x25eb
Address 0x0f21: 0x0011
Address 0x0f22: 0x05b2
Address 0x0f23: 0x0003
Address 0x0f24: 0x8002
Address 0x0f25: 0x0003
Address 0x0f26: 0x8001
Address 0x0f27: 0x0003
Address 0x0f28: 0x8000
Address 0x0f29: 0x0010
Address 0x0f2a: 0x0aac
Address 0x0f2b: 0x0971
Address 0x0f2c: 0x0003
Address 0x0f2d: 0x8003
Address 0x0f2e: 0x0003
Address 0x0f2f: 0x8002
Address 0x0f30: 0x0003
Address 0x0f31: 0x8001
Address 0x0f32: 0x0003
Address 0x0f33: 0x8000
Address 0x0f34: 0x0012
Address 0x0f35: 0x0002
Address 0x0f36: 0x8000
Address 0x0f37: 0x0002
Address 0x0f38: 0x8001
Address 0x0f39: 0x000f
Address 0x0f3a: 0x8000
Address 0x0f3b: 0x099e
Address 0x0f3c: 0x000f
Address 0x0f3d: 0x8001
Address 0x0f3e: 0x69dd
Address 0x0f3f: 0x0004
Address 0x0f40: 0x8000
Address 0x0f41: 0x8000
Address 0x0f42: 0x8001
Address 0x0f43: 0x0007
Address 0x0f44: 0x8000
Address 0x0f45: 0x0f64
Address 0x0f46: 0x0002
Address 0x0f47: 0x8000
Address 0x0f48: 0x0002
Address 0x0f49: 0x8001
Address 0x0f4a: 0x0002
Address 0x0f4b: 0x8002
Address 0x0f4c: 0x0001
Address 0x0f4d: 0x8000
Address 0x0f4e: 0x6ebb
Address 0x0f4f: 0x0001
Address 0x0f50: 0x8001
Address 0x0f51: 0x05fb
Address 0x0f52: 0x0009
Address 0x0f53: 0x8002
Address 0x0f54: 0x14d9
Address 0x0f55: 0x1f9c
Address 0x0f56: 0x0011
Address 0x0f57: 0x05b2
Address 0x0f58: 0x0003
Address 0x0f59: 0x8002
Address 0x0f5a: 0x0003
Address 0x0f5b: 0x8001
Address 0x0f5c: 0x0003
Address 0x0f5d: 0x8000
Address 0x0f5e: 0x0010
Address 0x0f5f: 0x0aac
Address 0x0f60: 0x0999
Address 0x0f61: 0x0010
Address 0x0f62: 0x0aad
Address 0x0f63: 0x0999
Address 0x0f64: 0x0003
Address 0x0f65: 0x8001
Address 0x0f66: 0x0003
Address 0x0f67: 0x8000
Address 0x0f68: 0x0012
Address 0x0f69: 0x6597
Address 0x0f6a: 0x659d
Address 0x0f6b: 0x65a1
Address 0x0f6c: 0x0865
Address 0x0f6d: 0x086e
Address 0x0f6e: 0x0882
Address 0x0f6f: 0x0000
Address 0x0f70: 0x0016
Address 0x0f71: 0x0000
Address 0x0f72: 0x0000
Address 0x0f73: 0x0000
Address 0x0f74: 0x0000
Address 0x0f75: 0x0000
Address 0x0f76: 0x0002
Address 0x0f77: 0x8000
Address 0x0f78: 0x0002
Address 0x0f79: 0x8001
Address 0x0f7a: 0x0001
Address 0x0f7b: 0x8000
Address 0x0f7c: 0x0002
Address 0x0f7d: 0x0001
Address 0x0f7e: 0x8001
Address 0x0f7f: 0x0000
Address 0x0f80: 0x0011
Address 0x0f81: 0x107a
Address 0x0f82: 0x0003
Address 0x0f83: 0x8001
Address 0x0f84: 0x0003
Address 0x0f85: 0x8000
Address 0x0f86: 0x0012
Address 0x0f87: 0x0002
Address 0x0f88: 0x8000
Address 0x0f89: 0x0002
Address 0x0f8a: 0x8001
Address 0x0f8b: 0x0001
Address 0x0f8c: 0x8000
Address 0x0f8d: 0x0008
Address 0x0f8e: 0x0001
Address 0x0f8f: 0x8001
Address 0x0f90: 0x0001
Address 0x0f91: 0x0011
Address 0x0f92: 0x10b7
Address 0x0f93: 0x0003
Address 0x0f94: 0x8001
Address 0x0f95: 0x0003
Address 0x0f96: 0x8000
Address 0x0f97: 0x0012
Address 0x0f98: 0x0002
Address 0x0f99: 0x8000
Address 0x0f9a: 0x0002
Address 0x0f9b: 0x8001
Address 0x0f9c: 0x0001
Address 0x0f9d: 0x8000
Address 0x0f9e: 0x0001
Address 0x0f9f: 0x0001
Address 0x0fa0: 0x8001
Address 0x0fa1: 0x0002
Address 0x0fa2: 0x0011
Address 0x0fa3: 0x107a
Address 0x0fa4: 0x0003
Address 0x0fa5: 0x8001
Address 0x0fa6: 0x0003
Address 0x0fa7: 0x8000
Address 0x0fa8: 0x0012
Address 0x0fa9: 0x0002
Address 0x0faa: 0x8000
Address 0x0fab: 0x0002
Address 0x0fac: 0x8001
Address 0x0fad: 0x0001
Address 0x0fae: 0x8000
Address 0x0faf: 0x0001
Address 0x0fb0: 0x0001
Address 0x0fb1: 0x8001
Address 0x0fb2: 0x0003
Address 0x0fb3: 0x0011
Address 0x0fb4: 0x10b7
Address 0x0fb5: 0x0011
Address 0x0fb6: 0x11b5
Address 0x0fb7: 0x0003
Address 0x0fb8: 0x8001
Address 0x0fb9: 0x0003
Address 0x0fba: 0x8000
Address 0x0fbb: 0x0012
Address 0x0fbc: 0x0002
Address 0x0fbd: 0x8000
Address 0x0fbe: 0x0002
Address 0x0fbf: 0x8001
Address 0x0fc0: 0x0001
Address 0x0fc1: 0x8000
Address 0x0fc2: 0x0004
Address 0x0fc3: 0x0001
Address 0x0fc4: 0x8001
Address 0x0fc5: 0x0004
Address 0x0fc6: 0x0011
Address 0x0fc7: 0x10b7
Address 0x0fc8: 0x0003
Address 0x0fc9: 0x8001
Address 0x0fca: 0x0003
Address 0x0fcb: 0x8000
Address 0x0fcc: 0x0012
Address 0x0fcd: 0x0002
Address 0x0fce: 0x8000
Address 0x0fcf: 0x0002
Address 0x0fd0: 0x8001
Address 0x0fd1: 0x0001
Address 0x0fd2: 0x8000
Address 0x0fd3: 0x0002
Address 0x0fd4: 0x0001
Address 0x0fd5: 0x8001
Address 0x0fd6: 0x0005
Address 0x0fd7: 0x0011
Address 0x0fd8: 0x107a
Address 0x0fd9: 0x0003
Address 0x0fda: 0x8001
Address 0x0fdb: 0x0003
Address 0x0fdc: 0x8000
Address 0x0fdd: 0x0012
Address 0x0fde: 0x0002
Address 0x0fdf: 0x8000
Address 0x0fe0: 0x0002
Address 0x0fe1: 0x8001
Address 0x0fe2: 0x0001
Address 0x0fe3: 0x8000
Address 0x0fe4: 0x000b
Address 0x0fe5: 0x0001
Address 0x0fe6: 0x8001
Address 0x0fe7: 0x0006
Address 0x0fe8: 0x0011
Address 0x0fe9: 0x10b7
Address 0x0fea: 0x0003
Address 0x0feb: 0x8001
Address 0x0fec: 0x0003
Address 0x0fed: 0x8000
Address 0x0fee: 0x0012
Address 0x0fef: 0x0002
Address 0x0ff0: 0x8000
Address 0x0ff1: 0x0002
Address 0x0ff2: 0x8001
Address 0x0ff3: 0x0001
Address 0x0ff4: 0x8000
Address 0x0ff5: 0x0002
Address 0x0ff6: 0x0001
Address 0x0ff7: 0x8001
Address 0x0ff8: 0x0007
Address 0x0ff9: 0x0011
Address 0x0ffa: 0x107a
Address 0x0ffb: 0x0003
Address 0x0ffc: 0x8001
Address 0x0ffd: 0x0003
Address 0x0ffe: 0x8000
Address 0x0fff: 0x0012
Address 0x1000: 0x0002
Address 0x1001: 0x8000
Address 0x1002: 0x0002
Address 0x1003: 0x8001
Address 0x1004: 0x0001
Address 0x1005: 0x8000
Address 0x1006: 0x0000
Address 0x1007: 0x0001
Address 0x1008: 0x8001
Address 0x1009: 0x0008
Address 0x100a: 0x0011
Address 0x100b: 0x107a
Address 0x100c: 0x0003
Address 0x100d: 0x8001
Address 0x100e: 0x0003
Address 0x100f: 0x8000
Address 0x1010: 0x0012
Address 0x1011: 0x0002
Address 0x1012: 0x8000
Address 0x1013: 0x0002
Address 0x1014: 0x8001
Address 0x1015: 0x0001
Address 0x1016: 0x8000
Address 0x1017: 0x0004
Address 0x1018: 0x0001
Address 0x1019: 0x8001
Address 0x101a: 0x0009
Address 0x101b: 0x0011
Address 0x101c: 0x10b7
Address 0x101d: 0x0003
Address 0x101e: 0x8001
Address 0x101f: 0x0003
Address 0x1020: 0x8000
Address 0x1021: 0x0012
Address 0x1022: 0x0002
Address 0x1023: 0x8000
Address 0x1024: 0x0002
Address 0x1025: 0x8001
Address 0x1026: 0x0001
Address 0x1027: 0x8000
Address 0x1028: 0x0001
Address 0x1029: 0x0001
Address 0x102a: 0x8001
Address 0x102b: 0x000a
Address 0x102c: 0x0011
Address 0x102d: 0x107a
Address 0x102e: 0x0003
Address 0x102f: 0x8001
Address 0x1030: 0x0003
Address 0x1031: 0x8000
Address 0x1032: 0x0012
Address 0x1033: 0x0002
Address 0x1034: 0x8000
Address 0x1035: 0x0002
Address 0x1036: 0x8001
Address 0x1037: 0x0001
Address 0x1038: 0x8000
Address 0x1039: 0x0012
Address 0x103a: 0x0001
Address 0x103b: 0x8001
Address 0x103c: 0x000b
Address 0x103d: 0x0011
Address 0x103e: 0x10b7
Address 0x103f: 0x0003
Address 0x1040: 0x8001
Address 0x1041: 0x0003
Address 0x1042: 0x8000
Address 0x1043: 0x0012
Address 0x1044: 0x0011
Address 0x1045: 0x1203
Address 0x1046: 0x0012
Address 0x1047: 0x0002
Address 0x1048: 0x8000
Address 0x1049: 0x0002
Address 0x104a: 0x8001
Address 0x104b: 0x0001
Address 0x104c: 0x8000
Address 0x104d: 0x0001
Address 0x104e: 0x0001
Address 0x104f: 0x8001
Address 0x1050: 0x000c
Address 0x1051: 0x0011
Address 0x1052: 0x107a
Address 0x1053: 0x0003
Address 0x1054: 0x8001
Address 0x1055: 0x0003
Address 0x1056: 0x8000
Address 0x1057: 0x0012
Address 0x1058: 0x0002
Address 0x1059: 0x8000
Address 0x105a: 0x0002
Address 0x105b: 0x8001
Address 0x105c: 0x0001
Address 0x105d: 0x8000
Address 0x105e: 0x0009
Address 0x105f: 0x0001
Address 0x1060: 0x8001
Address 0x1061: 0x000d
Address 0x1062: 0x0011
Address 0x1063: 0x10b7
Address 0x1064: 0x0003
Address 0x1065: 0x8001
Address 0x1066: 0x0003
Address 0x1067: 0x8000
Address 0x1068: 0x0012
Address 0x1069: 0x0002
Address 0x106a: 0x8000
Address 0x106b: 0x0002
Address 0x106c: 0x8001
Address 0x106d: 0x0001
Address 0x106e: 0x8000
Address 0x106f: 0x0002
Address 0x1070: 0x0001
Address 0x1071: 0x8001
Address 0x1072: 0x000e
Address 0x1073: 0x0011
Address 0x1074: 0x107a
Address 0x1075: 0x0003
Address 0x1076: 0x8001
Address 0x1077: 0x0003
Address 0x1078: 0x8000
Address 0x1079: 0x0012
Address 0x107a: 0x0002
Address 0x107b: 0x8000
Address 0x107c: 0x0002
Address 0x107d: 0x8001
Address 0x107e: 0x0002
Address 0x107f: 0x8002
Address 0x1080: 0x0009
Address 0x1081: 0x8002
Address 0x1082: 0x0a9c
Address 0x1083: 0x0002
Address 0x1084: 0x000f
Address 0x1085: 0x8002
Address 0x1086: 0x8002
Address 0x1087: 0x0007
Address 0x1088: 0x8002
Address 0x1089: 0x10b0
Address 0x108a: 0x0011
Address 0x108b: 0x1135
Address 0x108c: 0x0010
Address 0x108d: 0x0f6f
Address 0x108e: 0x8000
Address 0x108f: 0x0009
Address 0x1090: 0x8001
Address 0x1091: 0x8000
Address 0x1092: 0x0f69
Address 0x1093: 0x000f
Address 0x1094: 0x8001
Address 0x1095: 0x8001
Address 0x1096: 0x0001
Address 0x1097: 0x8000
Address 0x1098: 0x65a8
Address 0x1099: 0x0011
Address 0x109a: 0x05ee
Address 0x109b: 0x0001
Address 0x109c: 0x8000
Address 0x109d: 0x8001
Address 0x109e: 0x0011
Address 0x109f: 0x05ee
Address 0x10a0: 0x0001
Address 0x10a1: 0x8000
Address 0x10a2: 0x65e8
Address 0x10a3: 0x0011
Address 0x10a4: 0x05ee
Address 0x10a5: 0x0001
Address 0x10a6: 0x8000
Address 0x10a7: 0x8001
Address 0x10a8: 0x0011
Address 0x10a9: 0x05ee
Address 0x10aa: 0x0013
Address 0x10ab: 0x002e
Address 0x10ac: 0x0013
Address 0x10ad: 0x000a
Address 0x10ae: 0x0013
Address 0x10af: 0x000a
Address 0x10b0: 0x0003
Address 0x10b1: 0x8002
Address 0x10b2: 0x0003
Address 0x10b3: 0x8001
Address 0x10b4: 0x0003
Address 0x10b5: 0x8000
Address 0x10b6: 0x0012
Address 0x10b7: 0x0002
Address 0x10b8: 0x8000
Address 0x10b9: 0x0002
Address 0x10ba: 0x8001
Address 0x10bb: 0x0002
Address 0x10bc: 0x8002
Address 0x10bd: 0x0009
Address 0x10be: 0x8002
Address 0x10bf: 0x0a9c
Address 0x10c0: 0x0002
Address 0x10c1: 0x000f
Address 0x10c2: 0x8002
Address 0x10c3: 0x8002
Address 0x10c4: 0x0007
Address 0x10c5: 0x8002
Address 0x10c6: 0x112e
Address 0x10c7: 0x0011
Address 0x10c8: 0x1135
Address 0x10c9: 0x0002
Address 0x10ca: 0x8000
Address 0x10cb: 0x000f
Address 0x10cc: 0x8000
Address 0x10cd: 0x0f6f
Address 0x10ce: 0x0009
Address 0x10cf: 0x8001
Address 0x10d0: 0x8000
Address 0x10d1: 0x0f69
Address 0x10d2: 0x000f
Address 0x10d3: 0x8001
Address 0x10d4: 0x8001
Address 0x10d5: 0x0001
Address 0x10d6: 0x8000
Address 0x10d7: 0x660a
Address 0x10d8: 0x0011
Address 0x10d9: 0x05ee
Address 0x10da: 0x0001
Address 0x10db: 0x8000
Address 0x10dc: 0x8001
Address 0x10dd: 0x0011
Address 0x10de: 0x05ee
Address 0x10df: 0x0001
Address 0x10e0: 0x8000
Address 0x10e1: 0x663a
Address 0x10e2: 0x0011
Address 0x10e3: 0x05ee
Address 0x10e4: 0x0003
Address 0x10e5: 0x8000
Address 0x10e6: 0x0001
Address 0x10e7: 0x8001
Address 0x10e8: 0x8000
Address 0x10e9: 0x000f
Address 0x10ea: 0x8000
Address 0x10eb: 0x0f70
Address 0x10ec: 0x000f
Address 0x10ed: 0x8002
Address 0x10ee: 0x0f6f
Address 0x10ef: 0x0009
Address 0x10f0: 0x8002
Address 0x10f1: 0x8002
Address 0x10f2: 0x0f6c
Address 0x10f3: 0x000f
Address 0x10f4: 0x8002
Address 0x10f5: 0x8002
Address 0x10f6: 0x0011
Address 0x10f7: 0x8002
Address 0x10f8: 0x0007
Address 0x10f9: 0x8001
Address 0x10fa: 0x1127
